
**** 05/20/22 12:18:07 ******* PSpice Lite (March 2016) ******* ID# 10813 ****

  


 ****     CIRCUIT DESCRIPTION


******************************************************************************



vdd 1 0 dc 12v
m3 1 1 2 0 aaa3
m2 2 2 3 0 aaa2
m1 3 3 0 0 aaa1
ma3 4 4 1 1 bbbma3
ma4 6 4 1 1 bbbma4
ma1 4 7 5 0 aaaa1
ma2 6 8 5 0 aaaa2
m4 5 3 0 0 aaa4
ma5 9 6 1 1 bbbma5
m5 9 3 0 0 aaa5
cc 6 9 4p
.model aaa1 nmos(kp=1.073u vto=1.73 lambda=0.002 gamma=0 w=11.49U l=1U tox=2u cgso=73.61p cgdo=6.487p cbd=74.46p)
.model aaa2 nmos(kp=1.073u vto=1.73 lambda=0.002 gamma=0 w=11.49U l=1U tox=2u cgso=73.61p cgdo=6.487p cbd=74.46p)
.model aaa3 nmos(kp=1.073u vto=1.73 lambda=0.002 gamma=0 w=1.01U l=1U tox=2u cgso=73.61p cgdo=6.487p cbd=74.46p)
.model aaa4 nmos(kp=1.073u vto=1.73 lambda=0.002 gamma=0 w=11.49U l=1U tox=2u cgso=73.61p cgdo=6.487p cbd=74.46p)
.model aaaa1 nmos(kp=1.073u vto=1.73 lambda=0.002 gamma=0 w=6.5U l=1U tox=2u cgso=73.61p cgdo=6.487p cbd=74.46p)
.model aaaa2 nmos(kp=1.073u vto=1.73 lambda=0.002 gamma=0 w=6.5U l=1U tox=2u cgso=73.61p cgdo=6.487p cbd=74.46p)
.model bbbma3 pmos(kp=10.43u vto=-3.533 lambda=0.002 gamma=0 w=0.16U l=1U tox=100n cgso=2.288n cgdo=138.5p cbd=899.2p)
.model bbbma4 pmos(kp=10.43u vto=-3.533 lambda=0.002 gamma=0 w=0.16U l=1U tox=100n cgso=2.288n cgdo=138.5p cbd=899.2p)
.model aaa5 nmos(kp=1.073u vto=1.73 lambda=0.002 gamma=0 w=11.1U l=1U tox=2u cgso=73.61p cgdo=6.487p cbd=74.46p)
.model bbbma5 pmos(kp=10.43u vto=-3.533 lambda=0.002 gamma=0 w=0.311U l=1U tox=100n cgso=2.288n cgdo=138.5p cbd=899.2p)
*vo 6 0 dc 6v

*vs 7 70 dc 6v
*vss 70 0 sin(0 0.674 1k 0 0 0)
*vl 8 80 dc 6v
*vll 80 0 sin(0 0.674 1k 0 0 0)

* for AC analysis®t¼Ò-------
*vminus 7 70 ac -5u
*vminus_dc 70 0 dc 6
*vplus 8 80 ac 5u
*vplus_dc 80 0 dc 6
*.tran 0.01m 20m 0 0.01m
*.ac dec 500 0.000001 1000meg
*--------------------------

* for AC analysis¦@¼Ò-------
vminus 7 70 ac 500u
vminus_dc 70 0 dc 6
vplus 8 80 ac 500u
vplus_dc 80 0 dc 6
*.tran 0.01m 20m 0 0.01m
.ac dec 500 0.000001 1000meg
*--------------------------


.op
.probe
.end

**** 05/20/22 12:18:07 ******* PSpice Lite (March 2016) ******* ID# 10813 ****

  


 ****     MOSFET MODEL PARAMETERS


******************************************************************************




               aaa1            aaa2            aaa3            aaa4            
               NMOS            NMOS            NMOS            NMOS            
       LEVEL    1               1               1               1            
           L    1.000000E-06    1.000000E-06    1.000000E-06    1.000000E-06 
           W   11.490000E-06   11.490000E-06    1.010000E-06   11.490000E-06 
         VTO    1.73            1.73            1.73            1.73         
          KP    1.073000E-06    1.073000E-06    1.073000E-06    1.073000E-06 
       GAMMA    0               0               0               0            
         PHI     .6              .6              .6              .6          
      LAMBDA    2.000000E-03    2.000000E-03    2.000000E-03    2.000000E-03 
          IS   10.000000E-15   10.000000E-15   10.000000E-15   10.000000E-15 
          JS    0               0               0               0            
          PB     .8              .8              .8              .8          
        PBSW     .8              .8              .8              .8          
         CBD   74.460000E-12   74.460000E-12   74.460000E-12   74.460000E-12 
          CJ    0               0               0               0            
        CJSW    0               0               0               0            
        CGSO   73.610000E-12   73.610000E-12   73.610000E-12   73.610000E-12 
        CGDO    6.487000E-12    6.487000E-12    6.487000E-12    6.487000E-12 
        CGBO    0               0               0               0            
         TOX    2.000000E-06    2.000000E-06    2.000000E-06    2.000000E-06 
          XJ    0               0               0               0            
       UCRIT   10.000000E+03   10.000000E+03   10.000000E+03   10.000000E+03 
      DIOMOD    1               1               1               1            
         VFB    0               0               0               0            
        LETA    0               0               0               0            
        WETA    0               0               0               0            
          U0    0               0               0               0            
        TEMP    0               0               0               0            
         VDD    5               5               5               5            
       XPART    0               0               0               0            


               aaaa1           aaaa2           bbbma3          bbbma4          
               NMOS            NMOS            PMOS            PMOS            
       LEVEL    1               1               1               1            
           L    1.000000E-06    1.000000E-06    1.000000E-06    1.000000E-06 
           W    6.500000E-06    6.500000E-06  160.000000E-09  160.000000E-09 
         VTO    1.73            1.73           -3.533          -3.533        
          KP    1.073000E-06    1.073000E-06   10.430000E-06   10.430000E-06 
       GAMMA    0               0               0               0            
         PHI     .6              .6              .6              .6          
      LAMBDA    2.000000E-03    2.000000E-03    2.000000E-03    2.000000E-03 
          IS   10.000000E-15   10.000000E-15   10.000000E-15   10.000000E-15 
          JS    0               0               0               0            
          PB     .8              .8              .8              .8          
        PBSW     .8              .8              .8              .8          
         CBD   74.460000E-12   74.460000E-12  899.200000E-12  899.200000E-12 
          CJ    0               0               0               0            
        CJSW    0               0               0               0            
        CGSO   73.610000E-12   73.610000E-12    2.288000E-09    2.288000E-09 
        CGDO    6.487000E-12    6.487000E-12  138.500000E-12  138.500000E-12 
        CGBO    0               0               0               0            
         TOX    2.000000E-06    2.000000E-06  100.000000E-09  100.000000E-09 
          XJ    0               0               0               0            
       UCRIT   10.000000E+03   10.000000E+03   10.000000E+03   10.000000E+03 
      DIOMOD    1               1               1               1            
         VFB    0               0               0               0            
        LETA    0               0               0               0            
        WETA    0               0               0               0            
          U0    0               0               0               0            
        TEMP    0               0               0               0            
         VDD    5               5               5               5            
       XPART    0               0               0               0            


               aaa5            bbbma5          
               NMOS            PMOS            
       LEVEL    1               1            
           L    1.000000E-06    1.000000E-06 
           W   11.100000E-06  311.000000E-09 
         VTO    1.73           -3.533        
          KP    1.073000E-06   10.430000E-06 
       GAMMA    0               0            
         PHI     .6              .6          
      LAMBDA    2.000000E-03    2.000000E-03 
          IS   10.000000E-15   10.000000E-15 
          JS    0               0            
          PB     .8              .8          
        PBSW     .8              .8          
         CBD   74.460000E-12  899.200000E-12 
          CJ    0               0            
        CJSW    0               0            
        CGSO   73.610000E-12    2.288000E-09 
        CGDO    6.487000E-12  138.500000E-12 
        CGBO    0               0            
         TOX    2.000000E-06  100.000000E-09 
          XJ    0               0            
       UCRIT   10.000000E+03   10.000000E+03 
      DIOMOD    1               1            
         VFB    0               0            
        LETA    0               0            
        WETA    0               0            
          U0    0               0            
        TEMP    0               0            
         VDD    5               5            
       XPART    0               0            


**** 05/20/22 12:18:07 ******* PSpice Lite (March 2016) ******* ID# 10813 ****

  


 ****     SMALL SIGNAL BIAS SOLUTION       TEMPERATURE =   27.000 DEG C


******************************************************************************



 NODE   VOLTAGE     NODE   VOLTAGE     NODE   VOLTAGE     NODE   VOLTAGE


(    1)   12.0000  (    2)    5.9997  (    3)    2.9998  (    4)    6.0334      

(    5)    3.0760  (    6)    6.0334  (    7)    6.0000  (    8)    6.0000      

(    9)    6.0697  (   70)    6.0000  (   80)    6.0000  




    VOLTAGE SOURCE CURRENTS
    NAME         CURRENT

    vdd         -2.972E-05
    vminus       0.000E+00
    vminus_dc    0.000E+00
    vplus        0.000E+00
    vplus_dc     0.000E+00

    TOTAL POWER DISSIPATION   3.57E-04  WATTS


**** 05/20/22 12:18:07 ******* PSpice Lite (March 2016) ******* ID# 10813 ****

  


 ****     OPERATING POINT INFORMATION      TEMPERATURE =   27.000 DEG C


******************************************************************************






**** MOSFETS


NAME         m3          m2          m1          ma3         ma4       
MODEL        aaa3        aaa2        aaa1        bbbma3      bbbma4    
ID           1.00E-05    1.00E-05    1.00E-05   -5.00E-06   -5.00E-06 
VGS          6.00E+00    3.00E+00    3.00E+00   -5.97E+00   -5.97E+00 
VDS          6.00E+00    3.00E+00    3.00E+00   -5.97E+00   -5.97E+00 
VBS         -6.00E+00   -3.00E+00    0.00E+00    0.00E+00    0.00E+00 
VTH          1.73E+00    1.73E+00    1.73E+00   -3.53E+00   -3.53E+00 
VDSAT        4.27E+00    1.27E+00    1.27E+00   -2.43E+00   -2.43E+00 
Lin0/Sat1   -1.00E+00   -1.00E+00   -1.00E+00   -1.00E+00   -1.00E+00 
if          -1.00E+00   -1.00E+00   -1.00E+00   -1.00E+00   -1.00E+00 
ir          -1.00E+00   -1.00E+00   -1.00E+00   -1.00E+00   -1.00E+00 
TAU         -1.00E+00   -1.00E+00   -1.00E+00   -1.00E+00   -1.00E+00 
GM           4.68E-06    1.58E-05    1.58E-05    4.11E-06    4.11E-06 
GDS          1.98E-08    1.99E-08    1.99E-08    9.88E-09    9.88E-09 
GMB          0.00E+00    0.00E+00    0.00E+00    0.00E+00    0.00E+00 
CBD          1.86E-11    2.55E-11    3.42E-11    3.09E-10    3.09E-10 
CBS          0.00E+00    0.00E+00    0.00E+00    0.00E+00    0.00E+00 
CGSOV        7.43E-17    8.46E-16    8.46E-16    3.66E-16    3.66E-16 
CGDOV        6.55E-18    7.45E-17    7.45E-17    2.22E-17    2.22E-17 
CGBOV        0.00E+00    0.00E+00    0.00E+00    0.00E+00    0.00E+00 
CGS          1.16E-17    1.32E-16    1.32E-16    3.68E-17    3.68E-17 
CGD          0.00E+00    0.00E+00    0.00E+00    0.00E+00    0.00E+00 
CGB          0.00E+00    0.00E+00    0.00E+00    0.00E+00    0.00E+00 

NAME         ma1         ma2         m4          ma5         m5        
MODEL        aaaa1       aaaa2       aaa4        bbbma5      aaa5      
ID           5.00E-06    5.00E-06    1.00E-05   -9.72E-06    9.72E-06 
VGS          2.92E+00    2.92E+00    3.00E+00   -5.97E+00    3.00E+00 
VDS          2.96E+00    2.96E+00    3.08E+00   -5.93E+00    6.07E+00 
VBS         -3.08E+00   -3.08E+00    0.00E+00    0.00E+00    0.00E+00 
VTH          1.73E+00    1.73E+00    1.73E+00   -3.53E+00    1.73E+00 
VDSAT        1.19E+00    1.19E+00    1.27E+00   -2.43E+00    1.27E+00 
Lin0/Sat1   -1.00E+00   -1.00E+00   -1.00E+00   -1.00E+00   -1.00E+00 
if          -1.00E+00   -1.00E+00   -1.00E+00   -1.00E+00   -1.00E+00 
ir          -1.00E+00   -1.00E+00   -1.00E+00   -1.00E+00   -1.00E+00 
TAU         -1.00E+00   -1.00E+00   -1.00E+00   -1.00E+00   -1.00E+00 
GM           8.38E-06    8.38E-06    1.58E-05    7.99E-06    1.53E-05 
GDS          9.94E-09    9.94E-09    1.99E-08    1.92E-08    1.92E-08 
GMB          0.00E+00    0.00E+00    0.00E+00    0.00E+00    0.00E+00 
CBD          2.55E-11    2.55E-11    3.38E-11    3.10E-10    2.54E-11 
CBS          0.00E+00    0.00E+00    0.00E+00    0.00E+00    0.00E+00 
CGSOV        4.78E-16    4.78E-16    8.46E-16    7.12E-16    8.17E-16 
CGDOV        4.22E-17    4.22E-17    7.45E-17    4.31E-17    7.20E-17 
CGBOV        0.00E+00    0.00E+00    0.00E+00    0.00E+00    0.00E+00 
CGS          7.48E-17    7.48E-17    1.32E-16    7.16E-17    1.28E-16 
CGD          0.00E+00    0.00E+00    0.00E+00    0.00E+00    0.00E+00 
CGB          0.00E+00    0.00E+00    0.00E+00    0.00E+00    0.00E+00 

          JOB CONCLUDED

**** 05/20/22 12:18:07 ******* PSpice Lite (March 2016) ******* ID# 10813 ****

  


 ****     JOB STATISTICS SUMMARY


******************************************************************************



  Total job time (using Solver 1)   =         .20
