
**** 03/18/21 16:20:58 ******* PSpice Lite (March 2016) ******* ID# 10813 ****

 A Single-Stage Amplifier Circuit


 ****     CIRCUIT DESCRIPTION


******************************************************************************



*circuit description
Vcc 1 0 dc 10V
Vbb 5 0 dc 3V
vi 4 5 dc 1mV
Rc 1 2 2k
Rbb 4 3 100k
*model description
Q1 2 3 0 npn_transistor
.model npn_transistor npn (Is=1.8e-15 Bf=100)
*analysis requests
.tf V(2) vi
.op
.end

**** 03/18/21 16:20:58 ******* PSpice Lite (March 2016) ******* ID# 10813 ****

 A Single-Stage Amplifier Circuit


 ****     BJT MODEL PARAMETERS


******************************************************************************




               npn_transistor  
               NPN             
       LEVEL    1            
          IS    1.800000E-15 
          BF  100            
          NF    1            
          BR    1            
          NR    1            
         ISS    0            
          RE    0            
          RC    0            
         CJE    0            
         VJE     .75         
         CJC    0            
         VJC     .75         
         MJC     .33         
        XCJC    1            
         CJS    0            
         VJS     .75         
          KF    0            
          AF    1            
          CN    2.42         
           D     .87         


**** 03/18/21 16:20:58 ******* PSpice Lite (March 2016) ******* ID# 10813 ****

 A Single-Stage Amplifier Circuit


 ****     SMALL SIGNAL BIAS SOLUTION       TEMPERATURE =   27.000 DEG C


******************************************************************************



 NODE   VOLTAGE     NODE   VOLTAGE     NODE   VOLTAGE     NODE   VOLTAGE


(    1)   10.0000  (    2)    5.4395  (    3)     .7208  (    4)    3.0010      

(    5)    3.0000  




    VOLTAGE SOURCE CURRENTS
    NAME         CURRENT

    Vcc         -2.280E-03
    Vbb         -2.280E-05
    vi          -2.280E-05

    TOTAL POWER DISSIPATION   2.29E-02  WATTS


**** 03/18/21 16:20:58 ******* PSpice Lite (March 2016) ******* ID# 10813 ****

 A Single-Stage Amplifier Circuit


 ****     OPERATING POINT INFORMATION      TEMPERATURE =   27.000 DEG C


******************************************************************************






**** BIPOLAR JUNCTION TRANSISTORS


NAME         Q1                    
MODEL        npn_transistor        
IB           2.28E-05             
IC           2.28E-03             
VBE          7.21E-01             
VBC         -4.72E+00             
VCE          5.44E+00             
BETADC       1.00E+02             
GM           8.82E-02             
RPI          1.13E+03             
RX           0.00E+00             
RO           1.00E+12             
CBE          0.00E+00             
CBC          0.00E+00             
CJS          0.00E+00             
BETAAC       1.00E+02             
CBX/CBX2     0.00E+00             
FT/FT2       1.40E+18             






 ****     SMALL-SIGNAL CHARACTERISTICS


      V(2)/vi = -1.978E+00

      INPUT RESISTANCE AT vi =  1.011E+05

      OUTPUT RESISTANCE AT V(2) =  2.000E+03


          JOB CONCLUDED

**** 03/18/21 16:20:58 ******* PSpice Lite (March 2016) ******* ID# 10813 ****

 A Single-Stage Amplifier Circuit


 ****     JOB STATISTICS SUMMARY


******************************************************************************



  Total job time (using Solver 1)   =         .02
