
**** 03/25/21 13:26:17 ******* PSpice Lite (March 2016) ******* ID# 10813 ****

 Common-Emitter Amplifier


 ****     CIRCUIT DESCRIPTION


******************************************************************************



* circuit description *
Vcc 4 0 DC 10V
Vs 1 0 0V
Rs 1 2 1k
Rl 7 0 2k
Rc 4 5 1k
Re 6 0 1k
R1 4 3 50k
R2 3 0 50k
C1 2 3 1GF
C2 5 7 1GF
C3 6 0 1GF
Vout 7 0 AC 10mV
* model description *
Q1 5 3 6 npn_transistor
.model npn_transistor npn (Is=1.8e-15 Bf=100 Vaf=100)
*.model npn_transistor npn (Is=1.8e-15 Bf=100 )
* analysis requests *
.OP
.AC LIN 1 1kHz 1kHz
.PRINT AC Vm(Vout) Vp(7) Im(Vout) Ip(Vout)
.end 

**** 03/25/21 13:26:17 ******* PSpice Lite (March 2016) ******* ID# 10813 ****

 Common-Emitter Amplifier


 ****     BJT MODEL PARAMETERS


******************************************************************************




               npn_transistor  
               NPN             
       LEVEL    1            
          IS    1.800000E-15 
          BF  100            
          NF    1            
         VAF  100            
          BR    1            
          NR    1            
         ISS    0            
          RE    0            
          RC    0            
         CJE    0            
         VJE     .75         
         CJC    0            
         VJC     .75         
         MJC     .33         
        XCJC    1            
         CJS    0            
         VJS     .75         
          KF    0            
          AF    1            
          CN    2.42         
           D     .87         


**** 03/25/21 13:26:17 ******* PSpice Lite (March 2016) ******* ID# 10813 ****

 Common-Emitter Amplifier


 ****     SMALL SIGNAL BIAS SOLUTION       TEMPERATURE =   27.000 DEG C


******************************************************************************



 NODE   VOLTAGE     NODE   VOLTAGE     NODE   VOLTAGE     NODE   VOLTAGE


(    1)    0.0000  (    2)    0.0000  (    3)    4.1689  (    4)   10.0000      

(    5)    6.5949  (    6)    3.4384  (    7)    0.0000  




    VOLTAGE SOURCE CURRENTS
    NAME         CURRENT

    Vcc         -3.522E-03
    Vs           0.000E+00
    Vout         0.000E+00

    TOTAL POWER DISSIPATION   3.52E-02  WATTS


**** 03/25/21 13:26:17 ******* PSpice Lite (March 2016) ******* ID# 10813 ****

 Common-Emitter Amplifier


 ****     OPERATING POINT INFORMATION      TEMPERATURE =   27.000 DEG C


******************************************************************************






**** BIPOLAR JUNCTION TRANSISTORS


NAME         Q1                    
MODEL        npn_transistor        
IB           3.32E-05             
IC           3.41E-03             
VBE          7.31E-01             
VBC         -2.43E+00             
VCE          3.16E+00             
BETADC       1.02E+02             
GM           1.32E-01             
RPI          7.78E+02             
RX           0.00E+00             
RO           3.01E+04             
CBE          0.00E+00             
CBC          0.00E+00             
CJS          0.00E+00             
BETAAC       1.02E+02             
CBX/CBX2     0.00E+00             
FT/FT2       2.09E+18             


**** 03/25/21 13:26:17 ******* PSpice Lite (March 2016) ******* ID# 10813 ****

 Common-Emitter Amplifier


 ****     AC ANALYSIS                      TEMPERATURE =   27.000 DEG C


******************************************************************************



  FREQ        VM(Vout)    VP(7)       IM(Vout)    IP(Vout)    


   1.000E+03   1.000E-02   0.000E+00   1.533E-05   1.800E+02


          JOB CONCLUDED

**** 03/25/21 13:26:17 ******* PSpice Lite (March 2016) ******* ID# 10813 ****

 Common-Emitter Amplifier


 ****     JOB STATISTICS SUMMARY


******************************************************************************



  Total job time (using Solver 1)   =         .02
