
**** 03/25/21 13:04:41 ******* PSpice Lite (March 2016) ******* ID# 10813 ****

 *circuit description


 ****     CIRCUIT DESCRIPTION


******************************************************************************



Vi 1 0 sin(0V 10V 60HZ)
VR1 4 0 dc 5V
VR2 6 0 dc -5V
R1 1 2 10k
R2 2 3 10k
R3 2 5 10k
*diode model descriotion
D1 3 4 1mA_diode
D2 6 5 1mA_diode
.model 1mA_diode D (Is=0.01pA n=1.0675)
*analysis requests
.TRAN 0.01ms 40ms 0ms 0.01ms
.probe
.end

**** 03/25/21 13:04:41 ******* PSpice Lite (March 2016) ******* ID# 10813 ****

 *circuit description


 ****     Diode MODEL PARAMETERS


******************************************************************************




               1mA_diode       
          IS   10.000000E-15 
           N    1.0675       


**** 03/25/21 13:04:41 ******* PSpice Lite (March 2016) ******* ID# 10813 ****

 *circuit description


 ****     INITIAL TRANSIENT SOLUTION       TEMPERATURE =   27.000 DEG C


******************************************************************************



 NODE   VOLTAGE     NODE   VOLTAGE     NODE   VOLTAGE     NODE   VOLTAGE


(    1)    0.0000  (    2)    0.0000  (    3) 50.10E-09  (    4)    5.0000      

(    5)-50.10E-09  (    6)   -5.0000  




    VOLTAGE SOURCE CURRENTS
    NAME         CURRENT

    Vi           0.000E+00
    VR1         -5.010E-12
    VR2          5.010E-12

    TOTAL POWER DISSIPATION   5.01E-11  WATTS



          JOB CONCLUDED

**** 03/25/21 13:04:41 ******* PSpice Lite (March 2016) ******* ID# 10813 ****

 *circuit description


 ****     JOB STATISTICS SUMMARY


******************************************************************************



  Total job time (using Solver 1)   =         .09
