
**** 04/08/22 16:08:19 ******* PSpice Lite (March 2016) ******* ID# 10813 ****

  


 ****     CIRCUIT DESCRIPTION


******************************************************************************



vdd 1 0 dc 4v
vss 5 0 dc -4v
vo 99 0 dc 0v
vo2 77 0 dc 0v
rb 7 5 207
m9 3 2 1 1 bbb l=1u w=1u
m8 2 2 1 1 bbb l=1u w=1u
m11 3 3 4 4 aaa l=1u w=1u
m10 2 3 6 6 aaa l=1u w=1u
m13 4 4 5 5 aaa l=1u w=1u
m12 6 4 7 7 aaa l=1u w=2u
m2 99 2 1 1 bbb l=1u w=1u
m3 8 2 1 1 bbb l=1u w=1u
m4 8 8 5 5 aaa l=1u w=1u
m5 77 8 5 5 aaa l=1u w=1u
.model aaa nmos(kp=4m vto=2v lambda=0.02)
.model bbb pmos(kp=4m vto=-2v lambda=0.02)
.op
.probe
.end

**** 04/08/22 16:08:19 ******* PSpice Lite (March 2016) ******* ID# 10813 ****

  


 ****     MOSFET MODEL PARAMETERS


******************************************************************************




               aaa             bbb             
               NMOS            PMOS            
       LEVEL    1               1            
           L  100.000000E-06  100.000000E-06 
           W  100.000000E-06  100.000000E-06 
         VTO    2              -2            
          KP    4.000000E-03    4.000000E-03 
       GAMMA    0               0            
         PHI     .6              .6          
      LAMBDA     .02             .02         
          IS   10.000000E-15   10.000000E-15 
          JS    0               0            
          PB     .8              .8          
        PBSW     .8              .8          
          CJ    0               0            
        CJSW    0               0            
        CGSO    0               0            
        CGDO    0               0            
        CGBO    0               0            
         TOX    0               0            
          XJ    0               0            
       UCRIT   10.000000E+03   10.000000E+03 
      DIOMOD    1               1            
         VFB    0               0            
        LETA    0               0            
        WETA    0               0            
          U0    0               0            
        TEMP    0               0            
         VDD    5               5            
       XPART    0               0            


**** 04/08/22 16:08:19 ******* PSpice Lite (March 2016) ******* ID# 10813 ****

  


 ****     SMALL SIGNAL BIAS SOLUTION       TEMPERATURE =   27.000 DEG C


******************************************************************************



 NODE   VOLTAGE     NODE   VOLTAGE     NODE   VOLTAGE     NODE   VOLTAGE


(    1)    4.0000  (    2)    1.3315  (    3)    1.3369  (    4)   -1.3315      

(    5)   -4.0000  (    6)   -1.3316  (    7)   -3.8051  (    8)   -1.3150      

(   77)    0.0000  (   99)    0.0000  




    VOLTAGE SOURCE CURRENTS
    NAME         CURRENT

    vdd         -3.837E-03
    vss          3.885E-03
    vo           9.653E-04
    vo2         -1.013E-03

    TOTAL POWER DISSIPATION   3.09E-02  WATTS


**** 04/08/22 16:08:19 ******* PSpice Lite (March 2016) ******* ID# 10813 ****

  


 ****     OPERATING POINT INFORMATION      TEMPERATURE =   27.000 DEG C


******************************************************************************






**** MOSFETS


NAME         m9          m8          m11         m10         m13       
MODEL        bbb         bbb         aaa         aaa         aaa       
ID          -9.41E-04   -9.41E-04    9.41E-04    9.41E-04    9.41E-04 
VGS         -2.67E+00   -2.67E+00    2.67E+00    2.67E+00    2.67E+00 
VDS         -2.66E+00   -2.67E+00    2.67E+00    2.66E+00    2.67E+00 
VBS          0.00E+00    0.00E+00    0.00E+00    0.00E+00    0.00E+00 
VTH         -2.00E+00   -2.00E+00    2.00E+00    2.00E+00    2.00E+00 
VDSAT       -6.69E-01   -6.69E-01    6.68E-01    6.69E-01    6.68E-01 
Lin0/Sat1   -1.00E+00   -1.00E+00   -1.00E+00   -1.00E+00   -1.00E+00 
if          -1.00E+00   -1.00E+00   -1.00E+00   -1.00E+00   -1.00E+00 
ir          -1.00E+00   -1.00E+00   -1.00E+00   -1.00E+00   -1.00E+00 
TAU         -1.00E+00   -1.00E+00   -1.00E+00   -1.00E+00   -1.00E+00 
GM           2.82E-03    2.82E-03    2.82E-03    2.82E-03    2.82E-03 
GDS          1.79E-05    1.79E-05    1.79E-05    1.79E-05    1.79E-05 
GMB          0.00E+00    0.00E+00    0.00E+00    0.00E+00    0.00E+00 
CBD          0.00E+00    0.00E+00    0.00E+00    0.00E+00    0.00E+00 
CBS          0.00E+00    0.00E+00    0.00E+00    0.00E+00    0.00E+00 
CGSOV        0.00E+00    0.00E+00    0.00E+00    0.00E+00    0.00E+00 
CGDOV        0.00E+00    0.00E+00    0.00E+00    0.00E+00    0.00E+00 
CGBOV        0.00E+00    0.00E+00    0.00E+00    0.00E+00    0.00E+00 
CGS          0.00E+00    0.00E+00    0.00E+00    0.00E+00    0.00E+00 
CGD          0.00E+00    0.00E+00    0.00E+00    0.00E+00    0.00E+00 
CGB          0.00E+00    0.00E+00    0.00E+00    0.00E+00    0.00E+00 

NAME         m12         m2          m3          m4          m5        
MODEL        aaa         bbb         bbb         aaa         aaa       
ID           9.41E-04   -9.65E-04   -9.89E-04    9.89E-04    1.01E-03 
VGS          2.47E+00   -2.67E+00   -2.67E+00    2.69E+00    2.69E+00 
VDS          2.47E+00   -4.00E+00   -5.32E+00    2.69E+00    4.00E+00 
VBS          0.00E+00    0.00E+00    0.00E+00    0.00E+00    0.00E+00 
VTH          2.00E+00   -2.00E+00   -2.00E+00    2.00E+00    2.00E+00 
VDSAT        4.74E-01   -6.69E-01   -6.69E-01    6.85E-01    6.85E-01 
Lin0/Sat1   -1.00E+00   -1.00E+00   -1.00E+00   -1.00E+00   -1.00E+00 
if          -1.00E+00   -1.00E+00   -1.00E+00   -1.00E+00   -1.00E+00 
ir          -1.00E+00   -1.00E+00   -1.00E+00   -1.00E+00   -1.00E+00 
TAU         -1.00E+00   -1.00E+00   -1.00E+00   -1.00E+00   -1.00E+00 
GM           3.98E-03    2.89E-03    2.96E-03    2.89E-03    2.96E-03 
GDS          1.79E-05    1.79E-05    1.79E-05    1.88E-05    1.88E-05 
GMB          0.00E+00    0.00E+00    0.00E+00    0.00E+00    0.00E+00 
CBD          0.00E+00    0.00E+00    0.00E+00    0.00E+00    0.00E+00 
CBS          0.00E+00    0.00E+00    0.00E+00    0.00E+00    0.00E+00 
CGSOV        0.00E+00    0.00E+00    0.00E+00    0.00E+00    0.00E+00 
CGDOV        0.00E+00    0.00E+00    0.00E+00    0.00E+00    0.00E+00 
CGBOV        0.00E+00    0.00E+00    0.00E+00    0.00E+00    0.00E+00 
CGS          0.00E+00    0.00E+00    0.00E+00    0.00E+00    0.00E+00 
CGD          0.00E+00    0.00E+00    0.00E+00    0.00E+00    0.00E+00 
CGB          0.00E+00    0.00E+00    0.00E+00    0.00E+00    0.00E+00 

          JOB CONCLUDED

**** 04/08/22 16:08:19 ******* PSpice Lite (March 2016) ******* ID# 10813 ****

  


 ****     JOB STATISTICS SUMMARY


******************************************************************************



  Total job time (using Solver 1)   =        0.00
