
**** 04/08/22 16:02:12 ******* PSpice Lite (March 2016) ******* ID# 10813 ****

  


 ****     CIRCUIT DESCRIPTION


******************************************************************************



vdd 1 0 dc 4v
r1 1 2 7293
vo 3 0 dc 0v
vo2 7 0 dc 0v
vss 5 0 dc -4v
m1 2 2 5 5 aaa l=1u w=1u
m2 3 2 5 5 aaa l=1u w=1u
m3 6 2 5 5 aaa l=1u w=1u
m4 6 6 1 1 bbb l=1u w=1u
m5 7 6 1 1 bbb l=1u w=1u
.model aaa nmos(kp=4m vto=2v lambda=0.02)
.model bbb pmos(kp=4m vto=-2v lambda=0.02)
.op
.probe 
.end

**** 04/08/22 16:02:12 ******* PSpice Lite (March 2016) ******* ID# 10813 ****

  


 ****     MOSFET MODEL PARAMETERS


******************************************************************************




               aaa             bbb             
               NMOS            PMOS            
       LEVEL    1               1            
           L  100.000000E-06  100.000000E-06 
           W  100.000000E-06  100.000000E-06 
         VTO    2              -2            
          KP    4.000000E-03    4.000000E-03 
       GAMMA    0               0            
         PHI     .6              .6          
      LAMBDA     .02             .02         
          IS   10.000000E-15   10.000000E-15 
          JS    0               0            
          PB     .8              .8          
        PBSW     .8              .8          
          CJ    0               0            
        CJSW    0               0            
        CGSO    0               0            
        CGDO    0               0            
        CGBO    0               0            
         TOX    0               0            
          XJ    0               0            
       UCRIT   10.000000E+03   10.000000E+03 
      DIOMOD    1               1            
         VFB    0               0            
        LETA    0               0            
        WETA    0               0            
          U0    0               0            
        TEMP    0               0            
         VDD    5               5            
       XPART    0               0            


**** 04/08/22 16:02:12 ******* PSpice Lite (March 2016) ******* ID# 10813 ****

  


 ****     SMALL SIGNAL BIAS SOLUTION       TEMPERATURE =   27.000 DEG C


******************************************************************************



 NODE   VOLTAGE     NODE   VOLTAGE     NODE   VOLTAGE     NODE   VOLTAGE


(    1)    4.0000  (    2)   -1.4064  (    3)    0.0000  (    5)   -4.0000      

(    6)    1.3909  (    7)    0.0000  




    VOLTAGE SOURCE CURRENTS
    NAME         CURRENT

    vdd         -2.323E-03
    vo          -7.611E-04
    vo2          8.014E-04
    vss          2.283E-03

    TOTAL POWER DISSIPATION   1.84E-02  WATTS


**** 04/08/22 16:02:12 ******* PSpice Lite (March 2016) ******* ID# 10813 ****

  


 ****     OPERATING POINT INFORMATION      TEMPERATURE =   27.000 DEG C


******************************************************************************






**** MOSFETS


NAME         m1          m2          m3          m4          m5        
MODEL        aaa         aaa         aaa         bbb         bbb       
ID           7.41E-04    7.61E-04    7.81E-04   -7.81E-04   -8.01E-04 
VGS          2.59E+00    2.59E+00    2.59E+00   -2.61E+00   -2.61E+00 
VDS          2.59E+00    4.00E+00    5.39E+00   -2.61E+00   -4.00E+00 
VBS          0.00E+00    0.00E+00    0.00E+00    0.00E+00    0.00E+00 
VTH          2.00E+00    2.00E+00    2.00E+00   -2.00E+00   -2.00E+00 
VDSAT        5.94E-01    5.94E-01    5.94E-01   -6.09E-01   -6.09E-01 
Lin0/Sat1   -1.00E+00   -1.00E+00   -1.00E+00   -1.00E+00   -1.00E+00 
if          -1.00E+00   -1.00E+00   -1.00E+00   -1.00E+00   -1.00E+00 
ir          -1.00E+00   -1.00E+00   -1.00E+00   -1.00E+00   -1.00E+00 
TAU         -1.00E+00   -1.00E+00   -1.00E+00   -1.00E+00   -1.00E+00 
GM           2.50E-03    2.56E-03    2.63E-03    2.56E-03    2.63E-03 
GDS          1.41E-05    1.41E-05    1.41E-05    1.48E-05    1.48E-05 
GMB          0.00E+00    0.00E+00    0.00E+00    0.00E+00    0.00E+00 
CBD          0.00E+00    0.00E+00    0.00E+00    0.00E+00    0.00E+00 
CBS          0.00E+00    0.00E+00    0.00E+00    0.00E+00    0.00E+00 
CGSOV        0.00E+00    0.00E+00    0.00E+00    0.00E+00    0.00E+00 
CGDOV        0.00E+00    0.00E+00    0.00E+00    0.00E+00    0.00E+00 
CGBOV        0.00E+00    0.00E+00    0.00E+00    0.00E+00    0.00E+00 
CGS          0.00E+00    0.00E+00    0.00E+00    0.00E+00    0.00E+00 
CGD          0.00E+00    0.00E+00    0.00E+00    0.00E+00    0.00E+00 
CGB          0.00E+00    0.00E+00    0.00E+00    0.00E+00    0.00E+00 

          JOB CONCLUDED

**** 04/08/22 16:02:12 ******* PSpice Lite (March 2016) ******* ID# 10813 ****

  


 ****     JOB STATISTICS SUMMARY


******************************************************************************



  Total job time (using Solver 1)   =        0.00
