
**** 04/09/22 00:31:26 ******* PSpice Lite (March 2016) ******* ID# 10813 ****

  


 ****     CIRCUIT DESCRIPTION


******************************************************************************



vdd 1 0 dc 4v
vss 5 0 dc -4v
vi6 70 0 dc -1.33v
vi7 80 0 dc 2.7v
rb 7 5 207
m9 3 2 1 1 bbb l=1u w=1u
m8 2 2 1 1 bbb l=1u w=1u
m11 3 3 4 4 aaa l=1u w=1u
m10 2 3 6 6 aaa l=1u w=1u
m13 4 4 5 5 aaa l=1u w=1u
m12 6 4 7 7 aaa l=1u w=2u
m2 8 2 1 1 bbb l=1u w=1u
m6 8 70 5 5  aaa l=1u w=1u
m3 12 2 1 1 bbb l=1u w=1u
m4 12 12 5 5 aaa l=1u w=1u
m5 11 12 5 5 aaa l=1u w=1u
m7 1 80 11 11 aaa l=1u w=1u
.model aaa nmos(kp=4m vto=2v lambda=0.02)
.model bbb pmos(kp=4m vto=-2v lambda=0.02)
.op
.probe
.end

**** 04/09/22 00:31:26 ******* PSpice Lite (March 2016) ******* ID# 10813 ****

  


 ****     MOSFET MODEL PARAMETERS


******************************************************************************




               aaa             bbb             
               NMOS            PMOS            
       LEVEL    1               1            
           L  100.000000E-06  100.000000E-06 
           W  100.000000E-06  100.000000E-06 
         VTO    2              -2            
          KP    4.000000E-03    4.000000E-03 
       GAMMA    0               0            
         PHI     .6              .6          
      LAMBDA     .02             .02         
          IS   10.000000E-15   10.000000E-15 
          JS    0               0            
          PB     .8              .8          
        PBSW     .8              .8          
          CJ    0               0            
        CJSW    0               0            
        CGSO    0               0            
        CGDO    0               0            
        CGBO    0               0            
         TOX    0               0            
          XJ    0               0            
       UCRIT   10.000000E+03   10.000000E+03 
      DIOMOD    1               1            
         VFB    0               0            
        LETA    0               0            
        WETA    0               0            
          U0    0               0            
        TEMP    0               0            
         VDD    5               5            
       XPART    0               0            


**** 04/09/22 00:31:26 ******* PSpice Lite (March 2016) ******* ID# 10813 ****

  


 ****     SMALL SIGNAL BIAS SOLUTION       TEMPERATURE =   27.000 DEG C


******************************************************************************



 NODE   VOLTAGE     NODE   VOLTAGE     NODE   VOLTAGE     NODE   VOLTAGE


(    1)    4.0000  (    2)    1.3315  (    3)    1.3369  (    4)   -1.3315      

(    5)   -4.0000  (    6)   -1.3316  (    7)   -3.8051  (    8)    -.1211      

(   11)     .0148  (   12)   -1.3150  (   70)   -1.3300  (   80)    2.7000  




    VOLTAGE SOURCE CURRENTS
    NAME         CURRENT

    vdd         -4.853E-03
    vss          4.853E-03
    vi6          0.000E+00
    vi7          0.000E+00

    TOTAL POWER DISSIPATION   3.88E-02  WATTS


**** 04/09/22 00:31:26 ******* PSpice Lite (March 2016) ******* ID# 10813 ****

  


 ****     OPERATING POINT INFORMATION      TEMPERATURE =   27.000 DEG C


******************************************************************************






**** MOSFETS


NAME         m9          m8          m11         m10         m13       
MODEL        bbb         bbb         aaa         aaa         aaa       
ID          -9.41E-04   -9.41E-04    9.41E-04    9.41E-04    9.41E-04 
VGS         -2.67E+00   -2.67E+00    2.67E+00    2.67E+00    2.67E+00 
VDS         -2.66E+00   -2.67E+00    2.67E+00    2.66E+00    2.67E+00 
VBS          0.00E+00    0.00E+00    0.00E+00    0.00E+00    0.00E+00 
VTH         -2.00E+00   -2.00E+00    2.00E+00    2.00E+00    2.00E+00 
VDSAT       -6.69E-01   -6.69E-01    6.68E-01    6.69E-01    6.68E-01 
Lin0/Sat1   -1.00E+00   -1.00E+00   -1.00E+00   -1.00E+00   -1.00E+00 
if          -1.00E+00   -1.00E+00   -1.00E+00   -1.00E+00   -1.00E+00 
ir          -1.00E+00   -1.00E+00   -1.00E+00   -1.00E+00   -1.00E+00 
TAU         -1.00E+00   -1.00E+00   -1.00E+00   -1.00E+00   -1.00E+00 
GM           2.82E-03    2.82E-03    2.82E-03    2.82E-03    2.82E-03 
GDS          1.79E-05    1.79E-05    1.79E-05    1.79E-05    1.79E-05 
GMB          0.00E+00    0.00E+00    0.00E+00    0.00E+00    0.00E+00 
CBD          0.00E+00    0.00E+00    0.00E+00    0.00E+00    0.00E+00 
CBS          0.00E+00    0.00E+00    0.00E+00    0.00E+00    0.00E+00 
CGSOV        0.00E+00    0.00E+00    0.00E+00    0.00E+00    0.00E+00 
CGDOV        0.00E+00    0.00E+00    0.00E+00    0.00E+00    0.00E+00 
CGBOV        0.00E+00    0.00E+00    0.00E+00    0.00E+00    0.00E+00 
CGS          0.00E+00    0.00E+00    0.00E+00    0.00E+00    0.00E+00 
CGD          0.00E+00    0.00E+00    0.00E+00    0.00E+00    0.00E+00 
CGB          0.00E+00    0.00E+00    0.00E+00    0.00E+00    0.00E+00 

NAME         m12         m2          m6          m3          m4        
MODEL        aaa         bbb         aaa         bbb         aaa       
ID           9.41E-04   -9.67E-04    9.67E-04   -9.89E-04    9.89E-04 
VGS          2.47E+00   -2.67E+00    2.67E+00   -2.67E+00    2.69E+00 
VDS          2.47E+00   -4.12E+00    3.88E+00   -5.32E+00    2.69E+00 
VBS          0.00E+00    0.00E+00    0.00E+00    0.00E+00    0.00E+00 
VTH          2.00E+00   -2.00E+00    2.00E+00   -2.00E+00    2.00E+00 
VDSAT        4.74E-01   -6.69E-01    6.70E-01   -6.69E-01    6.85E-01 
Lin0/Sat1   -1.00E+00   -1.00E+00   -1.00E+00   -1.00E+00   -1.00E+00 
if          -1.00E+00   -1.00E+00   -1.00E+00   -1.00E+00   -1.00E+00 
ir          -1.00E+00   -1.00E+00   -1.00E+00   -1.00E+00   -1.00E+00 
TAU         -1.00E+00   -1.00E+00   -1.00E+00   -1.00E+00   -1.00E+00 
GM           3.98E-03    2.89E-03    2.89E-03    2.96E-03    2.89E-03 
GDS          1.79E-05    1.79E-05    1.80E-05    1.79E-05    1.88E-05 
GMB          0.00E+00    0.00E+00    0.00E+00    0.00E+00    0.00E+00 
CBD          0.00E+00    0.00E+00    0.00E+00    0.00E+00    0.00E+00 
CBS          0.00E+00    0.00E+00    0.00E+00    0.00E+00    0.00E+00 
CGSOV        0.00E+00    0.00E+00    0.00E+00    0.00E+00    0.00E+00 
CGDOV        0.00E+00    0.00E+00    0.00E+00    0.00E+00    0.00E+00 
CGBOV        0.00E+00    0.00E+00    0.00E+00    0.00E+00    0.00E+00 
CGS          0.00E+00    0.00E+00    0.00E+00    0.00E+00    0.00E+00 
CGD          0.00E+00    0.00E+00    0.00E+00    0.00E+00    0.00E+00 
CGB          0.00E+00    0.00E+00    0.00E+00    0.00E+00    0.00E+00 

NAME         m5          m7        
MODEL        aaa         aaa       
ID           1.01E-03    1.01E-03 
VGS          2.69E+00    2.69E+00 
VDS          4.01E+00    3.99E+00 
VBS          0.00E+00    0.00E+00 
VTH          2.00E+00    2.00E+00 
VDSAT        6.85E-01    6.85E-01 
Lin0/Sat1   -1.00E+00   -1.00E+00 
if          -1.00E+00   -1.00E+00 
ir          -1.00E+00   -1.00E+00 
TAU         -1.00E+00   -1.00E+00 
GM           2.96E-03    2.96E-03 
GDS          1.88E-05    1.88E-05 
GMB          0.00E+00    0.00E+00 
CBD          0.00E+00    0.00E+00 
CBS          0.00E+00    0.00E+00 
CGSOV        0.00E+00    0.00E+00 
CGDOV        0.00E+00    0.00E+00 
CGBOV        0.00E+00    0.00E+00 
CGS          0.00E+00    0.00E+00 
CGD          0.00E+00    0.00E+00 
CGB          0.00E+00    0.00E+00 

          JOB CONCLUDED

**** 04/09/22 00:31:26 ******* PSpice Lite (March 2016) ******* ID# 10813 ****

  


 ****     JOB STATISTICS SUMMARY


******************************************************************************



  Total job time (using Solver 1)   =         .02
