
**** 04/22/22 20:48:03 ******* PSpice Lite (March 2016) ******* ID# 10813 ****

  


 ****     CIRCUIT DESCRIPTION


******************************************************************************



vdd 1 0 dc 12v
m3 1 1 2 0 aaa3
m2 2 2 3 0 aaa2
m1 3 3 0 0 aaa1
.model aaa1 nmos(kp=1.073u vto=1.73 phi=0.6 gamma=0.5 lambda=0 l=100 w=58)
.model aaa2 nmos(kp=1.073u vto=1.73 phi=0.6 gamma=0.5 lambda=0 l=100 w=185)
.model aaa3 nmos(kp=1.073u vto=1.73 phi=0.6 gamma=0.5 lambda=0 l=100 w=8)


.op
.probe
.end

**** 04/22/22 20:48:03 ******* PSpice Lite (March 2016) ******* ID# 10813 ****

  


 ****     MOSFET MODEL PARAMETERS


******************************************************************************




               aaa1            aaa2            aaa3            
               NMOS            NMOS            NMOS            
       LEVEL    1               1               1            
           L  100             100             100            
           W   58             185               8            
         VTO    1.73            1.73            1.73         
          KP    1.073000E-06    1.073000E-06    1.073000E-06 
       GAMMA     .5              .5              .5          
         PHI     .6              .6              .6          
      LAMBDA    0               0               0            
          IS   10.000000E-15   10.000000E-15   10.000000E-15 
          JS    0               0               0            
          PB     .8              .8              .8          
        PBSW     .8              .8              .8          
          CJ    0               0               0            
        CJSW    0               0               0            
        CGSO    0               0               0            
        CGDO    0               0               0            
        CGBO    0               0               0            
         TOX    0               0               0            
          XJ    0               0               0            
       UCRIT   10.000000E+03   10.000000E+03   10.000000E+03 
      DIOMOD    1               1               1            
         VFB    0               0               0            
        LETA    0               0               0            
        WETA    0               0               0            
          U0    0               0               0            
        TEMP    0               0               0            
         VDD    5               5               5            
       XPART    0               0               0            


**** 04/22/22 20:48:03 ******* PSpice Lite (March 2016) ******* ID# 10813 ****

  


 ****     SMALL SIGNAL BIAS SOLUTION       TEMPERATURE =   27.000 DEG C


******************************************************************************



 NODE   VOLTAGE     NODE   VOLTAGE     NODE   VOLTAGE     NODE   VOLTAGE


(    1)   12.0000  (    2)    5.9840  (    3)    2.9891  




    VOLTAGE SOURCE CURRENTS
    NAME         CURRENT

    vdd         -4.933E-07

    TOTAL POWER DISSIPATION   5.92E-06  WATTS


**** 04/22/22 20:48:03 ******* PSpice Lite (March 2016) ******* ID# 10813 ****

  


 ****     OPERATING POINT INFORMATION      TEMPERATURE =   27.000 DEG C


******************************************************************************






**** MOSFETS


NAME         m3          m2          m1        
MODEL        aaa3        aaa2        aaa1      
ID           4.93E-07    4.93E-07    4.93E-07 
VGS          6.02E+00    3.00E+00    2.99E+00 
VDS          6.02E+00    3.00E+00    2.99E+00 
VBS         -5.98E+00   -2.99E+00    0.00E+00 
VTH          2.63E+00    2.29E+00    1.73E+00 
VDSAT        3.39E+00    7.05E-01    1.26E+00 
Lin0/Sat1   -1.00E+00   -1.00E+00   -1.00E+00 
if          -1.00E+00   -1.00E+00   -1.00E+00 
ir          -1.00E+00   -1.00E+00   -1.00E+00 
TAU         -1.00E+00   -1.00E+00   -1.00E+00 
GM           2.91E-07    1.40E-06    7.84E-07 
GDS          0.00E+00    0.00E+00    0.00E+00 
GMB          2.84E-08    1.85E-07    2.53E-07 
CBD          0.00E+00    0.00E+00    0.00E+00 
CBS          0.00E+00    0.00E+00    0.00E+00 
CGSOV        0.00E+00    0.00E+00    0.00E+00 
CGDOV        0.00E+00    0.00E+00    0.00E+00 
CGBOV        0.00E+00    0.00E+00    0.00E+00 
CGS          0.00E+00    0.00E+00    0.00E+00 
CGD          0.00E+00    0.00E+00    0.00E+00 
CGB          0.00E+00    0.00E+00    0.00E+00 

          JOB CONCLUDED

**** 04/22/22 20:48:03 ******* PSpice Lite (March 2016) ******* ID# 10813 ****

  


 ****     JOB STATISTICS SUMMARY


******************************************************************************



  Total job time (using Solver 1)   =        0.00
