
**** 04/26/22 15:37:20 ******* PSpice Lite (March 2016) ******* ID# 10813 ****

  


 ****     CIRCUIT DESCRIPTION


******************************************************************************



vdd 1 0 dc 12v
m3 1 1 2 0 aaa3
m2 2 2 3 0 aaa2
m1 3 3 0 0 aaa1
m4 5 3 0 0 aaa4
m5 5 4 1 1 bbb5
vi 4 7 dc 6v
vs 7 0 sin(0v 0.0048v 1khz 0 0 0)

.model aaa1 nmos(kp=1.073u vto=1.73 lambda=0.002 gamma=0 l=100 w=101)
.model aaa2 nmos(kp=1.073u vto=1.73 lambda=0.002 gamma=0.5 phi=0.6 l=100 w=11500)
.model aaa3 nmos(kp=1.073u vto=1.73 lambda=0.002 gamma=0.5 phi=0.6 l=100 w=185200)
.model aaa4 nmos(kp=1.073u vto=1.73 lambda=0.002 gamma=0 l=100 w=101)

.model bbb5 pmos(kp=10.43u vto=-3.533 lambda=0.002 gamma=0 l=100 w=30.88)

.op
.tran 0.01m 20m 0 0.01m

.probe
.end

**** 04/26/22 15:37:20 ******* PSpice Lite (March 2016) ******* ID# 10813 ****

  


 ****     MOSFET MODEL PARAMETERS


******************************************************************************




               aaa1            aaa2            aaa3            aaa4            
               NMOS            NMOS            NMOS            NMOS            
       LEVEL    1               1               1               1            
           L  100             100             100             100            
           W  101              11.500000E+03  185.200000E+03  101            
         VTO    1.73            1.73            1.73            1.73         
          KP    1.073000E-06    1.073000E-06    1.073000E-06    1.073000E-06 
       GAMMA    0                .5              .5             0            
         PHI     .6              .6              .6              .6          
      LAMBDA    2.000000E-03    2.000000E-03    2.000000E-03    2.000000E-03 
          IS   10.000000E-15   10.000000E-15   10.000000E-15   10.000000E-15 
          JS    0               0               0               0            
          PB     .8              .8              .8              .8          
        PBSW     .8              .8              .8              .8          
          CJ    0               0               0               0            
        CJSW    0               0               0               0            
        CGSO    0               0               0               0            
        CGDO    0               0               0               0            
        CGBO    0               0               0               0            
         TOX    0               0               0               0            
          XJ    0               0               0               0            
       UCRIT   10.000000E+03   10.000000E+03   10.000000E+03   10.000000E+03 
      DIOMOD    1               1               1               1            
         VFB    0               0               0               0            
        LETA    0               0               0               0            
        WETA    0               0               0               0            
          U0    0               0               0               0            
        TEMP    0               0               0               0            
         VDD    5               5               5               5            
       XPART    0               0               0               0            


               bbb5            
               PMOS            
       LEVEL    1            
           L  100            
           W   30.88         
         VTO   -3.533        
          KP   10.430000E-06 
       GAMMA    0            
         PHI     .6          
      LAMBDA    2.000000E-03 
          IS   10.000000E-15 
          JS    0            
          PB     .8          
        PBSW     .8          
          CJ    0            
        CJSW    0            
        CGSO    0            
        CGDO    0            
        CGBO    0            
         TOX    0            
          XJ    0            
       UCRIT   10.000000E+03 
      DIOMOD    1            
         VFB    0            
        LETA    0            
        WETA    0            
          U0    0            
        TEMP    0            
         VDD    5            
       XPART    0            


**** 04/26/22 15:37:20 ******* PSpice Lite (March 2016) ******* ID# 10813 ****

  


 ****     SMALL SIGNAL BIAS SOLUTION       TEMPERATURE =   27.000 DEG C


******************************************************************************



 NODE   VOLTAGE     NODE   VOLTAGE     NODE   VOLTAGE     NODE   VOLTAGE


(    1)   12.0000  (    2)    9.0079  (    3)    5.9826  (    4)    6.0000      

(    5)    6.0377  (    7)    0.0000  




    VOLTAGE SOURCE CURRENTS
    NAME         CURRENT

    vdd         -1.983E-05
    vi           0.000E+00
    vs           0.000E+00

    TOTAL POWER DISSIPATION   2.38E-04  WATTS


**** 04/26/22 15:37:20 ******* PSpice Lite (March 2016) ******* ID# 10813 ****

  


 ****     OPERATING POINT INFORMATION      TEMPERATURE =   27.000 DEG C


******************************************************************************






**** MOSFETS


NAME         m3          m2          m1          m4          m5        
MODEL        aaa3        aaa2        aaa1        aaa4        bbb5      
ID           9.92E-06    9.92E-06    9.92E-06    9.92E-06   -9.92E-06 
VGS          2.99E+00    3.03E+00    5.98E+00    5.98E+00   -6.00E+00 
VDS          2.99E+00    3.03E+00    5.98E+00    6.04E+00   -5.96E+00 
VBS         -9.01E+00   -5.98E+00    0.00E+00    0.00E+00    0.00E+00 
VTH          2.89E+00    2.63E+00    1.73E+00    1.73E+00   -3.53E+00 
VDSAT        9.96E-02    4.00E-01    4.25E+00    4.25E+00   -2.47E+00 
Lin0/Sat1   -1.00E+00   -1.00E+00   -1.00E+00   -1.00E+00   -1.00E+00 
if          -1.00E+00   -1.00E+00   -1.00E+00   -1.00E+00   -1.00E+00 
ir          -1.00E+00   -1.00E+00   -1.00E+00   -1.00E+00   -1.00E+00 
TAU         -1.00E+00   -1.00E+00   -1.00E+00   -1.00E+00   -1.00E+00 
GM           1.99E-04    4.96E-05    4.66E-06    4.66E-06    8.04E-06 
GDS          1.97E-08    1.97E-08    1.96E-08    1.96E-08    1.96E-08 
GMB          1.61E-05    4.84E-06    0.00E+00    0.00E+00    0.00E+00 
CBD          0.00E+00    0.00E+00    0.00E+00    0.00E+00    0.00E+00 
CBS          0.00E+00    0.00E+00    0.00E+00    0.00E+00    0.00E+00 
CGSOV        0.00E+00    0.00E+00    0.00E+00    0.00E+00    0.00E+00 
CGDOV        0.00E+00    0.00E+00    0.00E+00    0.00E+00    0.00E+00 
CGBOV        0.00E+00    0.00E+00    0.00E+00    0.00E+00    0.00E+00 
CGS          0.00E+00    0.00E+00    0.00E+00    0.00E+00    0.00E+00 
CGD          0.00E+00    0.00E+00    0.00E+00    0.00E+00    0.00E+00 
CGB          0.00E+00    0.00E+00    0.00E+00    0.00E+00    0.00E+00 
**** 04/26/22 15:37:20 ******* PSpice Lite (March 2016) ******* ID# 10813 ****

  


 ****     INITIAL TRANSIENT SOLUTION       TEMPERATURE =   27.000 DEG C


******************************************************************************



 NODE   VOLTAGE     NODE   VOLTAGE     NODE   VOLTAGE     NODE   VOLTAGE


(    1)   12.0000  (    2)    9.0079  (    3)    5.9826  (    4)    6.0000      

(    5)    6.0377  (    7)    0.0000  




    VOLTAGE SOURCE CURRENTS
    NAME         CURRENT

    vdd         -1.983E-05
    vi           0.000E+00
    vs           0.000E+00

    TOTAL POWER DISSIPATION   2.38E-04  WATTS



          JOB CONCLUDED

**** 04/26/22 15:37:20 ******* PSpice Lite (March 2016) ******* ID# 10813 ****

  


 ****     JOB STATISTICS SUMMARY


******************************************************************************



  Total job time (using Solver 1)   =         .06
