
**** 04/21/22 20:44:48 ******* PSpice Lite (March 2016) ******* ID# 10813 ****

  


 ****     CIRCUIT DESCRIPTION


******************************************************************************



vdd 1 0 dc 12v
ro 1 4 200000
m3 1 1 2 0 aaa3 
m2 2 2 3 0 aaa2
m1 3 3 0 0 aaa1
m4 4 3 0 0 aaa4
.model aaa1 nmos(kp=1.073u vto=1.73 phi=0.6 gamma=0.5 lambda=0 l=240u w=2000u)
.model aaa2 nmos(kp=1.073u vto=1.73 phi=0.6 gamma=0.5 lambda=0 l=12u w=2000u)
.model aaa3 nmos(kp=1.073u vto=1.73 phi=0.6 gamma=0.5 lambda=0 l=32u w=2000u)
.model aaa4 nmos(kp=1.073u vto=1.73 phi=0.6 gamma=0.5 lambda=0 l=240u w=2000u)


.op
.probe
.end

**** 04/21/22 20:44:48 ******* PSpice Lite (March 2016) ******* ID# 10813 ****

  


 ****     MOSFET MODEL PARAMETERS


******************************************************************************




               aaa1            aaa2            aaa3            aaa4            
               NMOS            NMOS            NMOS            NMOS            
       LEVEL    1               1               1               1            
           L  240.000000E-06   12.000000E-06   32.000000E-06  240.000000E-06 
           W    2.000000E-03    2.000000E-03    2.000000E-03    2.000000E-03 
         VTO    1.73            1.73            1.73            1.73         
          KP    1.073000E-06    1.073000E-06    1.073000E-06    1.073000E-06 
       GAMMA     .5              .5              .5              .5          
         PHI     .6              .6              .6              .6          
      LAMBDA    0               0               0               0            
          IS   10.000000E-15   10.000000E-15   10.000000E-15   10.000000E-15 
          JS    0               0               0               0            
          PB     .8              .8              .8              .8          
        PBSW     .8              .8              .8              .8          
          CJ    0               0               0               0            
        CJSW    0               0               0               0            
        CGSO    0               0               0               0            
        CGDO    0               0               0               0            
        CGBO    0               0               0               0            
         TOX    0               0               0               0            
          XJ    0               0               0               0            
       UCRIT   10.000000E+03   10.000000E+03   10.000000E+03   10.000000E+03 
      DIOMOD    1               1               1               1            
         VFB    0               0               0               0            
        LETA    0               0               0               0            
        WETA    0               0               0               0            
          U0    0               0               0               0            
        TEMP    0               0               0               0            
         VDD    5               5               5               5            
       XPART    0               0               0               0            


**** 04/21/22 20:44:48 ******* PSpice Lite (March 2016) ******* ID# 10813 ****

  


 ****     SMALL SIGNAL BIAS SOLUTION       TEMPERATURE =   27.000 DEG C


******************************************************************************



 NODE   VOLTAGE     NODE   VOLTAGE     NODE   VOLTAGE     NODE   VOLTAGE


(    1)   12.0000  (    2)    8.0497  (    3)    4.8440  (    4)    3.3290  




    VOLTAGE SOURCE CURRENTS
    NAME         CURRENT

    vdd         -8.671E-05

    TOTAL POWER DISSIPATION   1.04E-03  WATTS


**** 04/21/22 20:44:48 ******* PSpice Lite (March 2016) ******* ID# 10813 ****

  


 ****     OPERATING POINT INFORMATION      TEMPERATURE =   27.000 DEG C


******************************************************************************






**** MOSFETS


NAME         m3          m2          m1          m4        
MODEL        aaa3        aaa2        aaa1        aaa4      
ID           4.34E-05    4.34E-05    4.34E-05    4.34E-05 
VGS          3.95E+00    3.21E+00    4.84E+00    4.84E+00 
VDS          3.95E+00    3.21E+00    4.84E+00    3.33E+00 
VBS         -8.05E+00   -4.84E+00    0.00E+00    0.00E+00 
VTH          2.81E+00    2.51E+00    1.73E+00    1.73E+00 
VDSAT        1.14E+00    6.96E-01    3.11E+00    3.11E+00 
Lin0/Sat1   -1.00E+00   -1.00E+00   -1.00E+00   -1.00E+00 
if          -1.00E+00   -1.00E+00   -1.00E+00   -1.00E+00 
ir          -1.00E+00   -1.00E+00   -1.00E+00   -1.00E+00 
TAU         -1.00E+00   -1.00E+00   -1.00E+00   -1.00E+00 
GM           7.63E-05    1.25E-04    2.78E-05    2.78E-05 
GDS          0.00E+00    0.00E+00    0.00E+00    0.00E+00 
GMB          6.48E-06    1.33E-05    8.99E-06    8.99E-06 
CBD          0.00E+00    0.00E+00    0.00E+00    0.00E+00 
CBS          0.00E+00    0.00E+00    0.00E+00    0.00E+00 
CGSOV        0.00E+00    0.00E+00    0.00E+00    0.00E+00 
CGDOV        0.00E+00    0.00E+00    0.00E+00    0.00E+00 
CGBOV        0.00E+00    0.00E+00    0.00E+00    0.00E+00 
CGS          0.00E+00    0.00E+00    0.00E+00    0.00E+00 
CGD          0.00E+00    0.00E+00    0.00E+00    0.00E+00 
CGB          0.00E+00    0.00E+00    0.00E+00    0.00E+00 

          JOB CONCLUDED

**** 04/21/22 20:44:48 ******* PSpice Lite (March 2016) ******* ID# 10813 ****

  


 ****     JOB STATISTICS SUMMARY


******************************************************************************



  Total job time (using Solver 1)   =        0.00
