
**** 03/25/22 13:11:31 ******* PSpice Lite (March 2016) ******* ID# 10813 ****

  


 ****     CIRCUIT DESCRIPTION


******************************************************************************



vcc 1 0 dc 15v
iref 1 2 dc 1m
vo 4 0 dc 8v
m3 2 2 3 3 aaa L=10u w=100u
.model aaa nmos(kp=20u vto=1 lambda=0.02)
m4 4 2 5 5 bbb L=10u w=100u
.model bbb nmos(kp=20u vto=1 lambda=0.02)
m2 5 5 0 0 ccc L=10u w=100u
.model ccc nmos(kp=20u vto=1 lambda=0.02)
m1 3 5 0 0 ddd l=10u w=100u
.model ddd nmos(kp=20u vto=1 lambda=0.02)
.op
.dc vo 0 15 0.1
.plot dc i(vo)
.probe
.end

**** 03/25/22 13:11:31 ******* PSpice Lite (March 2016) ******* ID# 10813 ****

  


 ****     MOSFET MODEL PARAMETERS


******************************************************************************




               aaa             bbb             ccc             ddd             
               NMOS            NMOS            NMOS            NMOS            
       LEVEL    1               1               1               1            
           L  100.000000E-06  100.000000E-06  100.000000E-06  100.000000E-06 
           W  100.000000E-06  100.000000E-06  100.000000E-06  100.000000E-06 
         VTO    1               1               1               1            
          KP   20.000000E-06   20.000000E-06   20.000000E-06   20.000000E-06 
       GAMMA    0               0               0               0            
         PHI     .6              .6              .6              .6          
      LAMBDA     .02             .02             .02             .02         
          IS   10.000000E-15   10.000000E-15   10.000000E-15   10.000000E-15 
          JS    0               0               0               0            
          PB     .8              .8              .8              .8          
        PBSW     .8              .8              .8              .8          
          CJ    0               0               0               0            
        CJSW    0               0               0               0            
        CGSO    0               0               0               0            
        CGDO    0               0               0               0            
        CGBO    0               0               0               0            
         TOX    0               0               0               0            
          XJ    0               0               0               0            
       UCRIT   10.000000E+03   10.000000E+03   10.000000E+03   10.000000E+03 
      DIOMOD    1               1               1               1            
         VFB    0               0               0               0            
        LETA    0               0               0               0            
        WETA    0               0               0               0            
          U0    0               0               0               0            
        TEMP    0               0               0               0            
         VDD    5               5               5               5            
       XPART    0               0               0               0            


**** 03/25/22 13:11:31 ******* PSpice Lite (March 2016) ******* ID# 10813 ****

  


 ****     DC TRANSFER CURVES               TEMPERATURE =   27.000 DEG C


******************************************************************************



  vo          I(vo)       
(*)----------   -1.5000E-03  -1.0000E-03  -5.0000E-04   0.0000E+00   5.0000E-04
                       _ _ _ _ _ _ _ _ _ _ _ _ _ _ _ _ _ _ _ _ _ _ _ _ _ _ _
  0.000E+00  0.000E+00 .            .            .            *            .
  1.000E-01  0.000E+00 .            .            .            *            .
  2.000E-01  0.000E+00 .            .            .            *            .
  3.000E-01  0.000E+00 .            .            .            *            .
  4.000E-01  0.000E+00 .            .            .            *            .
  5.000E-01  0.000E+00 .            .            .            *            .
  6.000E-01  0.000E+00 .            .            .            *            .
  7.000E-01  0.000E+00 .            .            .            *            .
  8.000E-01  0.000E+00 .            .            .            *            .
  9.000E-01  0.000E+00 .            .            .            *            .
  1.000E+00  0.000E+00 .            .            .            *            .
  1.100E+00 -1.022E-06 .            .            .            *            .
  1.200E+00 -4.096E-06 .            .            .            *            .
  1.300E+00 -9.233E-06 .            .            .            *            .
  1.400E+00 -1.645E-05 .            .            .            *            .
  1.500E+00 -2.574E-05 .            .            .           *.            .
  1.600E+00 -3.713E-05 .            .            .           *.            .
  1.700E+00 -5.063E-05 .            .            .           *.            .
  1.800E+00 -6.623E-05 .            .            .          * .            .
  1.900E+00 -8.394E-05 .            .            .          * .            .
  2.000E+00 -1.038E-04 .            .            .         *  .            .
  2.100E+00 -1.257E-04 .            .            .         *  .            .
  2.200E+00 -1.497E-04 .            .            .        *   .            .
  2.300E+00 -1.758E-04 .            .            .       *    .            .
  2.400E+00 -2.040E-04 .            .            .       *    .            .
  2.500E+00 -2.341E-04 .            .            .      *     .            .
  2.600E+00 -2.662E-04 .            .            .     *      .            .
  2.700E+00 -3.003E-04 .            .            .    *       .            .
  2.800E+00 -3.361E-04 .            .            .   *        .            .
  2.900E+00 -3.736E-04 .            .            .  *         .            .
  3.000E+00 -4.127E-04 .            .            . *          .            .
  3.100E+00 -4.531E-04 .            .            .*           .            .
  3.200E+00 -4.946E-04 .            .            *            .            .
  3.300E+00 -5.368E-04 .            .           *.            .            .
  3.400E+00 -5.794E-04 .            .          * .            .            .
  3.500E+00 -6.218E-04 .            .         *  .            .            .
  3.600E+00 -6.634E-04 .            .        *   .            .            .
  3.700E+00 -7.035E-04 .            .       *    .            .            .
  3.800E+00 -7.415E-04 .            .      *     .            .            .
  3.900E+00 -7.767E-04 .            .     *      .            .            .
  4.000E+00 -8.086E-04 .            .    *       .            .            .
  4.100E+00 -8.368E-04 .            .   *        .            .            .
  4.200E+00 -8.614E-04 .            .   *        .            .            .
  4.300E+00 -8.825E-04 .            .  *         .            .            .
  4.400E+00 -9.004E-04 .            .  *         .            .            .
  4.500E+00 -9.156E-04 .            . *          .            .            .
  4.600E+00 -9.283E-04 .            . *          .            .            .
  4.700E+00 -9.391E-04 .            . *          .            .            .
  4.800E+00 -9.481E-04 .            .*           .            .            .
  4.900E+00 -9.558E-04 .            .*           .            .            .
  5.000E+00 -9.623E-04 .            .*           .            .            .
  5.100E+00 -9.679E-04 .            .*           .            .            .
  5.200E+00 -9.726E-04 .            .*           .            .            .
  5.300E+00 -9.767E-04 .            .*           .            .            .
  5.400E+00 -9.802E-04 .            .*           .            .            .
  5.500E+00 -9.833E-04 .            *            .            .            .
  5.600E+00 -9.859E-04 .            *            .            .            .
  5.700E+00 -9.881E-04 .            *            .            .            .
  5.800E+00 -9.901E-04 .            *            .            .            .
  5.900E+00 -9.918E-04 .            *            .            .            .
  6.000E+00 -9.932E-04 .            *            .            .            .
  6.100E+00 -9.944E-04 .            *            .            .            .
  6.200E+00 -9.955E-04 .            *            .            .            .
  6.300E+00 -9.964E-04 .            *            .            .            .
  6.400E+00 -9.971E-04 .            *            .            .            .
  6.500E+00 -9.978E-04 .            *            .            .            .
  6.600E+00 -9.983E-04 .            *            .            .            .
  6.700E+00 -9.987E-04 .            *            .            .            .
  6.800E+00 -9.990E-04 .            *            .            .            .
  6.900E+00 -9.992E-04 .            *            .            .            .
  7.000E+00 -9.994E-04 .            *            .            .            .
  7.100E+00 -9.995E-04 .            *            .            .            .
  7.200E+00 -9.995E-04 .            *            .            .            .
  7.300E+00 -9.996E-04 .            *            .            .            .
  7.400E+00 -9.997E-04 .            *            .            .            .
  7.500E+00 -9.997E-04 .            *            .            .            .
  7.600E+00 -9.998E-04 .            *            .            .            .
  7.700E+00 -9.998E-04 .            *            .            .            .
  7.800E+00 -9.999E-04 .            *            .            .            .
  7.900E+00 -9.999E-04 .            *            .            .            .
  8.000E+00 -1.000E-03 .            *            .            .            .
  8.100E+00 -1.000E-03 .            *            .            .            .
  8.200E+00 -1.000E-03 .            *            .            .            .
  8.300E+00 -1.000E-03 .            *            .            .            .
  8.400E+00 -1.000E-03 .            *            .            .            .
  8.500E+00 -1.000E-03 .            *            .            .            .
  8.600E+00 -1.000E-03 .            *            .            .            .
  8.700E+00 -1.000E-03 .            *            .            .            .
  8.800E+00 -1.000E-03 .            *            .            .            .
  8.900E+00 -1.000E-03 .            *            .            .            .
  9.000E+00 -1.000E-03 .            *            .            .            .
  9.100E+00 -1.001E-03 .            *            .            .            .
  9.200E+00 -1.001E-03 .            *            .            .            .
  9.300E+00 -1.001E-03 .            *            .            .            .
  9.400E+00 -1.001E-03 .            *            .            .            .
  9.500E+00 -1.001E-03 .            *            .            .            .
  9.600E+00 -1.001E-03 .            *            .            .            .
  9.700E+00 -1.001E-03 .            *            .            .            .
  9.800E+00 -1.001E-03 .            *            .            .            .
  9.900E+00 -1.001E-03 .            *            .            .            .
  1.000E+01 -1.001E-03 .            *            .            .            .
  1.010E+01 -1.001E-03 .            *            .            .            .
  1.020E+01 -1.001E-03 .            *            .            .            .
  1.030E+01 -1.001E-03 .            *            .            .            .
  1.040E+01 -1.001E-03 .            *            .            .            .
  1.050E+01 -1.001E-03 .            *            .            .            .
  1.060E+01 -1.001E-03 .            *            .            .            .
  1.070E+01 -1.001E-03 .            *            .            .            .
  1.080E+01 -1.001E-03 .            *            .            .            .
  1.090E+01 -1.001E-03 .            *            .            .            .
  1.100E+01 -1.001E-03 .            *            .            .            .
  1.110E+01 -1.001E-03 .            *            .            .            .
  1.120E+01 -1.002E-03 .            *            .            .            .
  1.130E+01 -1.002E-03 .            *            .            .            .
  1.140E+01 -1.002E-03 .            *            .            .            .
  1.150E+01 -1.002E-03 .            *            .            .            .
  1.160E+01 -1.002E-03 .            *            .            .            .
  1.170E+01 -1.002E-03 .            *            .            .            .
  1.180E+01 -1.002E-03 .            *            .            .            .
  1.190E+01 -1.002E-03 .            *            .            .            .
  1.200E+01 -1.002E-03 .            *            .            .            .
  1.210E+01 -1.002E-03 .            *            .            .            .
  1.220E+01 -1.002E-03 .            *            .            .            .
  1.230E+01 -1.002E-03 .            *            .            .            .
  1.240E+01 -1.002E-03 .            *            .            .            .
  1.250E+01 -1.002E-03 .            *            .            .            .
  1.260E+01 -1.002E-03 .            *            .            .            .
  1.270E+01 -1.002E-03 .            *            .            .            .
  1.280E+01 -1.002E-03 .            *            .            .            .
  1.290E+01 -1.002E-03 .            *            .            .            .
  1.300E+01 -1.002E-03 .            *            .            .            .
  1.310E+01 -1.002E-03 .            *            .            .            .
  1.320E+01 -1.002E-03 .            *            .            .            .
  1.330E+01 -1.002E-03 .            *            .            .            .
  1.340E+01 -1.003E-03 .            *            .            .            .
  1.350E+01 -1.003E-03 .            *            .            .            .
  1.360E+01 -1.003E-03 .            *            .            .            .
  1.370E+01 -1.003E-03 .            *            .            .            .
  1.380E+01 -1.003E-03 .            *            .            .            .
  1.390E+01 -1.003E-03 .            *            .            .            .
  1.400E+01 -1.003E-03 .            *            .            .            .
  1.410E+01 -1.003E-03 .            *            .            .            .
  1.420E+01 -1.003E-03 .            *            .            .            .
  1.430E+01 -1.003E-03 .            *            .            .            .
  1.440E+01 -1.003E-03 .            *            .            .            .
  1.450E+01 -1.003E-03 .            *            .            .            .
  1.460E+01 -1.003E-03 .            *            .            .            .
  1.470E+01 -1.003E-03 .            *            .            .            .
  1.480E+01 -1.003E-03 .            *            .            .            .
  1.490E+01 -1.003E-03 .            *            .            .            .
  1.500E+01 -1.003E-03 .            *            .            .            .
                       - - - - - - - - - - - - - - - - - - - - - - - - - - - 



**** 03/25/22 13:11:31 ******* PSpice Lite (March 2016) ******* ID# 10813 ****

  


 ****     SMALL SIGNAL BIAS SOLUTION       TEMPERATURE =   27.000 DEG C


******************************************************************************



 NODE   VOLTAGE     NODE   VOLTAGE     NODE   VOLTAGE     NODE   VOLTAGE


(    1)   15.0000  (    2)    8.0857  (    3)    4.0440  (    4)    8.0000      

(    5)    4.0417  




    VOLTAGE SOURCE CURRENTS
    NAME         CURRENT

    vcc         -1.000E-03
    vo          -1.000E-03

    TOTAL POWER DISSIPATION   2.30E-02  WATTS


**** 03/25/22 13:11:31 ******* PSpice Lite (March 2016) ******* ID# 10813 ****

  


 ****     OPERATING POINT INFORMATION      TEMPERATURE =   27.000 DEG C


******************************************************************************






**** MOSFETS


NAME         m3          m4          m2          m1        
MODEL        aaa         bbb         ccc         ddd       
ID           1.00E-03    1.00E-03    1.00E-03    1.00E-03 
VGS          4.04E+00    4.04E+00    4.04E+00    4.04E+00 
VDS          4.04E+00    3.96E+00    4.04E+00    4.04E+00 
VBS          0.00E+00    0.00E+00    0.00E+00    0.00E+00 
VTH          1.00E+00    1.00E+00    1.00E+00    1.00E+00 
VDSAT        3.04E+00    3.04E+00    3.04E+00    3.04E+00 
Lin0/Sat1   -1.00E+00   -1.00E+00   -1.00E+00   -1.00E+00 
if          -1.00E+00   -1.00E+00   -1.00E+00   -1.00E+00 
ir          -1.00E+00   -1.00E+00   -1.00E+00   -1.00E+00 
TAU         -1.00E+00   -1.00E+00   -1.00E+00   -1.00E+00 
GM           6.58E-04    6.57E-04    6.58E-04    6.58E-04 
GDS          1.85E-05    1.85E-05    1.85E-05    1.85E-05 
GMB          0.00E+00    0.00E+00    0.00E+00    0.00E+00 
CBD          0.00E+00    0.00E+00    0.00E+00    0.00E+00 
CBS          0.00E+00    0.00E+00    0.00E+00    0.00E+00 
CGSOV        0.00E+00    0.00E+00    0.00E+00    0.00E+00 
CGDOV        0.00E+00    0.00E+00    0.00E+00    0.00E+00 
CGBOV        0.00E+00    0.00E+00    0.00E+00    0.00E+00 
CGS          0.00E+00    0.00E+00    0.00E+00    0.00E+00 
CGD          0.00E+00    0.00E+00    0.00E+00    0.00E+00 
CGB          0.00E+00    0.00E+00    0.00E+00    0.00E+00 

          JOB CONCLUDED

**** 03/25/22 13:11:31 ******* PSpice Lite (March 2016) ******* ID# 10813 ****

  


 ****     JOB STATISTICS SUMMARY


******************************************************************************



  Total job time (using Solver 1)   =         .03
