
**** 03/29/22 15:13:00 ******* PSpice Lite (March 2016) ******* ID# 10813 ****

  


 ****     CIRCUIT DESCRIPTION


******************************************************************************



vcc 1 0 dc 15v
iref 1 2 dc 1m
vo 3 0 dc 8v
m4 3 2 4 4 aaa
m1 2 4 0 0 aaa
m2 4 4 0 0 aaa
.model aaa nmos(kp=20u vto=1 lambda=0.02 l=10u w=100u)
*.model bbb nmos(kp=20u vto=1 lambda=0.02)
*.model ccc nmos(kp=20u vto=1 lambda=0.02)
.op
.dc vo 0 15 0.1
.plot dc i(vo)
.probe
.end

**** 03/29/22 15:13:00 ******* PSpice Lite (March 2016) ******* ID# 10813 ****

  


 ****     MOSFET MODEL PARAMETERS


******************************************************************************




               aaa             
               NMOS            
       LEVEL    1            
           L   10.000000E-06 
           W  100.000000E-06 
         VTO    1            
          KP   20.000000E-06 
       GAMMA    0            
         PHI     .6          
      LAMBDA     .02         
          IS   10.000000E-15 
          JS    0            
          PB     .8          
        PBSW     .8          
          CJ    0            
        CJSW    0            
        CGSO    0            
        CGDO    0            
        CGBO    0            
         TOX    0            
          XJ    0            
       UCRIT   10.000000E+03 
      DIOMOD    1            
         VFB    0            
        LETA    0            
        WETA    0            
          U0    0            
        TEMP    0            
         VDD    5            
       XPART    0            


**** 03/29/22 15:13:00 ******* PSpice Lite (March 2016) ******* ID# 10813 ****

  


 ****     DC TRANSFER CURVES               TEMPERATURE =   27.000 DEG C


******************************************************************************



  vo          I(vo)       
(*)----------   -1.5000E-03  -1.0000E-03  -5.0000E-04   0.0000E+00   5.0000E-04
                       _ _ _ _ _ _ _ _ _ _ _ _ _ _ _ _ _ _ _ _ _ _ _ _ _ _ _
  0.000E+00  0.000E+00 .            .            .            *            .
  1.000E-01  0.000E+00 .            .            .            *            .
  2.000E-01  0.000E+00 .            .            .            *            .
  3.000E-01  0.000E+00 .            .            .            *            .
  4.000E-01  0.000E+00 .            .            .            *            .
  5.000E-01  0.000E+00 .            .            .            *            .
  6.000E-01  0.000E+00 .            .            .            *            .
  7.000E-01  0.000E+00 .            .            .            *            .
  8.000E-01  0.000E+00 .            .            .            *            .
  9.000E-01  0.000E+00 .            .            .            *            .
  1.000E+00  0.000E+00 .            .            .            *            .
  1.100E+00 -1.022E-06 .            .            .            *            .
  1.200E+00 -4.096E-06 .            .            .            *            .
  1.300E+00 -9.233E-06 .            .            .            *            .
  1.400E+00 -1.645E-05 .            .            .            *            .
  1.500E+00 -2.574E-05 .            .            .           *.            .
  1.600E+00 -3.713E-05 .            .            .           *.            .
  1.700E+00 -5.063E-05 .            .            .           *.            .
  1.800E+00 -6.623E-05 .            .            .          * .            .
  1.900E+00 -8.394E-05 .            .            .          * .            .
  2.000E+00 -1.038E-04 .            .            .         *  .            .
  2.100E+00 -1.257E-04 .            .            .         *  .            .
  2.200E+00 -1.497E-04 .            .            .        *   .            .
  2.300E+00 -1.758E-04 .            .            .       *    .            .
  2.400E+00 -2.039E-04 .            .            .       *    .            .
  2.500E+00 -2.341E-04 .            .            .      *     .            .
  2.600E+00 -2.662E-04 .            .            .     *      .            .
  2.700E+00 -3.001E-04 .            .            .    *       .            .
  2.800E+00 -3.359E-04 .            .            .   *        .            .
  2.900E+00 -3.733E-04 .            .            .  *         .            .
  3.000E+00 -4.122E-04 .            .            . *          .            .
  3.100E+00 -4.522E-04 .            .            .*           .            .
  3.200E+00 -4.932E-04 .            .            *            .            .
  3.300E+00 -5.348E-04 .            .           *.            .            .
  3.400E+00 -5.763E-04 .            .          * .            .            .
  3.500E+00 -6.172E-04 .            .         *  .            .            .
  3.600E+00 -6.568E-04 .            .        *   .            .            .
  3.700E+00 -6.943E-04 .            .       *    .            .            .
  3.800E+00 -7.289E-04 .            .      *     .            .            .
  3.900E+00 -7.600E-04 .            .     *      .            .            .
  4.000E+00 -7.873E-04 .            .     *      .            .            .
  4.100E+00 -8.107E-04 .            .    *       .            .            .
  4.200E+00 -8.304E-04 .            .   *        .            .            .
  4.300E+00 -8.469E-04 .            .   *        .            .            .
  4.400E+00 -8.606E-04 .            .   *        .            .            .
  4.500E+00 -8.720E-04 .            .  *         .            .            .
  4.600E+00 -8.815E-04 .            .  *         .            .            .
  4.700E+00 -8.893E-04 .            .  *         .            .            .
  4.800E+00 -8.960E-04 .            .  *         .            .            .
  4.900E+00 -9.015E-04 .            .  *         .            .            .
  5.000E+00 -9.062E-04 .            . *          .            .            .
  5.100E+00 -9.102E-04 .            . *          .            .            .
  5.200E+00 -9.136E-04 .            . *          .            .            .
  5.300E+00 -9.165E-04 .            . *          .            .            .
  5.400E+00 -9.190E-04 .            . *          .            .            .
  5.500E+00 -9.211E-04 .            . *          .            .            .
  5.600E+00 -9.229E-04 .            . *          .            .            .
  5.700E+00 -9.245E-04 .            . *          .            .            .
  5.800E+00 -9.258E-04 .            . *          .            .            .
  5.900E+00 -9.270E-04 .            . *          .            .            .
  6.000E+00 -9.279E-04 .            . *          .            .            .
  6.100E+00 -9.287E-04 .            . *          .            .            .
  6.200E+00 -9.294E-04 .            . *          .            .            .
  6.300E+00 -9.300E-04 .            . *          .            .            .
  6.400E+00 -9.305E-04 .            . *          .            .            .
  6.500E+00 -9.308E-04 .            . *          .            .            .
  6.600E+00 -9.311E-04 .            . *          .            .            .
  6.700E+00 -9.313E-04 .            . *          .            .            .
  6.800E+00 -9.314E-04 .            . *          .            .            .
  6.900E+00 -9.315E-04 .            . *          .            .            .
  7.000E+00 -9.316E-04 .            . *          .            .            .
  7.100E+00 -9.316E-04 .            . *          .            .            .
  7.200E+00 -9.316E-04 .            . *          .            .            .
  7.300E+00 -9.317E-04 .            . *          .            .            .
  7.400E+00 -9.317E-04 .            . *          .            .            .
  7.500E+00 -9.318E-04 .            . *          .            .            .
  7.600E+00 -9.318E-04 .            . *          .            .            .
  7.700E+00 -9.319E-04 .            . *          .            .            .
  7.800E+00 -9.319E-04 .            . *          .            .            .
  7.900E+00 -9.320E-04 .            . *          .            .            .
  8.000E+00 -9.320E-04 .            . *          .            .            .
  8.100E+00 -9.320E-04 .            . *          .            .            .
  8.200E+00 -9.321E-04 .            . *          .            .            .
  8.300E+00 -9.321E-04 .            . *          .            .            .
  8.400E+00 -9.322E-04 .            . *          .            .            .
  8.500E+00 -9.322E-04 .            . *          .            .            .
  8.600E+00 -9.322E-04 .            . *          .            .            .
  8.700E+00 -9.323E-04 .            . *          .            .            .
  8.800E+00 -9.323E-04 .            . *          .            .            .
  8.900E+00 -9.324E-04 .            . *          .            .            .
  9.000E+00 -9.324E-04 .            . *          .            .            .
  9.100E+00 -9.325E-04 .            . *          .            .            .
  9.200E+00 -9.325E-04 .            . *          .            .            .
  9.300E+00 -9.325E-04 .            . *          .            .            .
  9.400E+00 -9.326E-04 .            . *          .            .            .
  9.500E+00 -9.326E-04 .            . *          .            .            .
  9.600E+00 -9.327E-04 .            . *          .            .            .
  9.700E+00 -9.327E-04 .            . *          .            .            .
  9.800E+00 -9.327E-04 .            . *          .            .            .
  9.900E+00 -9.328E-04 .            . *          .            .            .
  1.000E+01 -9.328E-04 .            . *          .            .            .
  1.010E+01 -9.329E-04 .            . *          .            .            .
  1.020E+01 -9.329E-04 .            . *          .            .            .
  1.030E+01 -9.329E-04 .            . *          .            .            .
  1.040E+01 -9.330E-04 .            . *          .            .            .
  1.050E+01 -9.330E-04 .            . *          .            .            .
  1.060E+01 -9.331E-04 .            . *          .            .            .
  1.070E+01 -9.331E-04 .            . *          .            .            .
  1.080E+01 -9.331E-04 .            . *          .            .            .
  1.090E+01 -9.332E-04 .            . *          .            .            .
  1.100E+01 -9.332E-04 .            . *          .            .            .
  1.110E+01 -9.333E-04 .            . *          .            .            .
  1.120E+01 -9.333E-04 .            . *          .            .            .
  1.130E+01 -9.333E-04 .            . *          .            .            .
  1.140E+01 -9.334E-04 .            . *          .            .            .
  1.150E+01 -9.334E-04 .            . *          .            .            .
  1.160E+01 -9.335E-04 .            . *          .            .            .
  1.170E+01 -9.335E-04 .            . *          .            .            .
  1.180E+01 -9.335E-04 .            . *          .            .            .
  1.190E+01 -9.336E-04 .            . *          .            .            .
  1.200E+01 -9.336E-04 .            . *          .            .            .
  1.210E+01 -9.337E-04 .            . *          .            .            .
  1.220E+01 -9.337E-04 .            . *          .            .            .
  1.230E+01 -9.337E-04 .            . *          .            .            .
  1.240E+01 -9.338E-04 .            . *          .            .            .
  1.250E+01 -9.338E-04 .            . *          .            .            .
  1.260E+01 -9.338E-04 .            . *          .            .            .
  1.270E+01 -9.339E-04 .            . *          .            .            .
  1.280E+01 -9.339E-04 .            . *          .            .            .
  1.290E+01 -9.340E-04 .            . *          .            .            .
  1.300E+01 -9.340E-04 .            . *          .            .            .
  1.310E+01 -9.340E-04 .            . *          .            .            .
  1.320E+01 -9.341E-04 .            . *          .            .            .
  1.330E+01 -9.341E-04 .            . *          .            .            .
  1.340E+01 -9.341E-04 .            . *          .            .            .
  1.350E+01 -9.342E-04 .            . *          .            .            .
  1.360E+01 -9.342E-04 .            . *          .            .            .
  1.370E+01 -9.343E-04 .            . *          .            .            .
  1.380E+01 -9.343E-04 .            . *          .            .            .
  1.390E+01 -9.343E-04 .            . *          .            .            .
  1.400E+01 -9.344E-04 .            . *          .            .            .
  1.410E+01 -9.344E-04 .            . *          .            .            .
  1.420E+01 -9.344E-04 .            . *          .            .            .
  1.430E+01 -9.345E-04 .            . *          .            .            .
  1.440E+01 -9.345E-04 .            . *          .            .            .
  1.450E+01 -9.346E-04 .            . *          .            .            .
  1.460E+01 -9.346E-04 .            . *          .            .            .
  1.470E+01 -9.346E-04 .            . *          .            .            .
  1.480E+01 -9.347E-04 .            . *          .            .            .
  1.490E+01 -9.347E-04 .            . *          .            .            .
  1.500E+01 -9.347E-04 .            . *          .            .            .
                       - - - - - - - - - - - - - - - - - - - - - - - - - - - 



**** 03/29/22 15:13:00 ******* PSpice Lite (March 2016) ******* ID# 10813 ****

  


 ****     SMALL SIGNAL BIAS SOLUTION       TEMPERATURE =   27.000 DEG C


******************************************************************************



 NODE   VOLTAGE     NODE   VOLTAGE     NODE   VOLTAGE     NODE   VOLTAGE


(    1)   15.0000  (    2)    7.8752  (    3)    8.0000  (    4)    3.9393  




    VOLTAGE SOURCE CURRENTS
    NAME         CURRENT

    vcc         -1.000E-03
    vo          -9.320E-04

    TOTAL POWER DISSIPATION   2.25E-02  WATTS


**** 03/29/22 15:13:00 ******* PSpice Lite (March 2016) ******* ID# 10813 ****

  


 ****     OPERATING POINT INFORMATION      TEMPERATURE =   27.000 DEG C


******************************************************************************






**** MOSFETS


NAME         m4          m1          m2        
MODEL        aaa         aaa         aaa       
ID           9.32E-04    1.00E-03    9.32E-04 
VGS          3.94E+00    3.94E+00    3.94E+00 
VDS          4.06E+00    7.88E+00    3.94E+00 
VBS          0.00E+00    0.00E+00    0.00E+00 
VTH          1.00E+00    1.00E+00    1.00E+00 
VDSAT        2.94E+00    2.94E+00    2.94E+00 
Lin0/Sat1   -1.00E+00   -1.00E+00   -1.00E+00 
if          -1.00E+00   -1.00E+00   -1.00E+00 
ir          -1.00E+00   -1.00E+00   -1.00E+00 
TAU         -1.00E+00   -1.00E+00   -1.00E+00 
GM           6.35E-04    6.80E-04    6.34E-04 
GDS          1.72E-05    1.73E-05    1.73E-05 
GMB          0.00E+00    0.00E+00    0.00E+00 
CBD          0.00E+00    0.00E+00    0.00E+00 
CBS          0.00E+00    0.00E+00    0.00E+00 
CGSOV        0.00E+00    0.00E+00    0.00E+00 
CGDOV        0.00E+00    0.00E+00    0.00E+00 
CGBOV        0.00E+00    0.00E+00    0.00E+00 
CGS          0.00E+00    0.00E+00    0.00E+00 
CGD          0.00E+00    0.00E+00    0.00E+00 
CGB          0.00E+00    0.00E+00    0.00E+00 

          JOB CONCLUDED

**** 03/29/22 15:13:00 ******* PSpice Lite (March 2016) ******* ID# 10813 ****

  


 ****     JOB STATISTICS SUMMARY


******************************************************************************



  Total job time (using Solver 1)   =         .03
