
**** 05/13/21 15:01:19 ******* PSpice Lite (March 2016) ******* ID# 10813 ****

  


 ****     CIRCUIT DESCRIPTION


******************************************************************************



vdd vdd 0 dc 12
*vi vi 0 dc 3.4
vi vi 0 sin(3.4 0.002 100)

M1 1 1 0 0 e_mos L=1u W=6.63825795u
M2 2 2 1 0 e_mos L=1u W=16.56u
M3 2 2 vdd vdd d_mos L=1u W=0.68293779u
M4 3 2 vdd vdd d_mos L=1u W=0.68293779u
M5 3 2 4 0 e_mos L=1u W=609.5u
M6 4 vi 0 0 e_mos L=1u W=6.63825795u
.model e_mos nmos (KP=1.073u Vto=1.73 lambda=0.002 gamma=0.5)
.model d_mos pmos (KP=10.43u Vto=-3.533 lambda=0.002 gamma=0.5)
.op
.tran 0.1m 40m 0m 0.01m
.probe
.end

**** 05/13/21 15:01:19 ******* PSpice Lite (March 2016) ******* ID# 10813 ****

  


 ****     MOSFET MODEL PARAMETERS


******************************************************************************




               e_mos           d_mos           
               NMOS            PMOS            
       LEVEL    1               1            
           L  100.000000E-06  100.000000E-06 
           W  100.000000E-06  100.000000E-06 
         VTO    1.73           -3.533        
          KP    1.073000E-06   10.430000E-06 
       GAMMA     .5              .5          
         PHI     .6              .6          
      LAMBDA    2.000000E-03    2.000000E-03 
          IS   10.000000E-15   10.000000E-15 
          JS    0               0            
          PB     .8              .8          
        PBSW     .8              .8          
          CJ    0               0            
        CJSW    0               0            
        CGSO    0               0            
        CGDO    0               0            
        CGBO    0               0            
         TOX    0               0            
          XJ    0               0            
       UCRIT   10.000000E+03   10.000000E+03 
      DIOMOD    1               1            
         VFB    0               0            
        LETA    0               0            
        WETA    0               0            
          U0    0               0            
        TEMP    0               0            
         VDD    5               5            
       XPART    0               0            


**** 05/13/21 15:01:19 ******* PSpice Lite (March 2016) ******* ID# 10813 ****

  


 ****     SMALL SIGNAL BIAS SOLUTION       TEMPERATURE =   27.000 DEG C


******************************************************************************



 NODE   VOLTAGE     NODE   VOLTAGE     NODE   VOLTAGE     NODE   VOLTAGE


(    1)    3.4000  (    2)    6.8000  (    3)    6.0000  (    4)    4.1885      

(   vi)    3.4000  (  vdd)   12.0000  




    VOLTAGE SOURCE CURRENTS
    NAME         CURRENT

    vdd         -2.002E-05
    vi           0.000E+00

    TOTAL POWER DISSIPATION   2.40E-04  WATTS


**** 05/13/21 15:01:19 ******* PSpice Lite (March 2016) ******* ID# 10813 ****

  


 ****     OPERATING POINT INFORMATION      TEMPERATURE =   27.000 DEG C


******************************************************************************






**** MOSFETS


NAME         M1          M2          M3          M4          M5        
MODEL        e_mos       e_mos       d_mos       d_mos       e_mos     
ID           1.00E-05    1.00E-05   -1.00E-05   -1.00E-05    1.00E-05 
VGS          3.40E+00    3.40E+00   -5.20E+00   -5.20E+00    2.61E+00 
VDS          3.40E+00    3.40E+00   -5.20E+00   -6.00E+00    1.81E+00 
VBS          0.00E+00   -3.40E+00    0.00E+00    0.00E+00   -4.19E+00 
VTH          1.73E+00    2.34E+00   -3.53E+00   -3.53E+00    2.44E+00 
VDSAT        1.67E+00    1.06E+00   -1.67E+00   -1.67E+00    1.75E-01 
Lin0/Sat1   -1.00E+00   -1.00E+00   -1.00E+00   -1.00E+00   -1.00E+00 
if          -1.00E+00   -1.00E+00   -1.00E+00   -1.00E+00   -1.00E+00 
ir          -1.00E+00   -1.00E+00   -1.00E+00   -1.00E+00   -1.00E+00 
TAU         -1.00E+00   -1.00E+00   -1.00E+00   -1.00E+00   -1.00E+00 
GM           1.20E-05    1.89E-05    1.20E-05    1.20E-05    1.15E-04 
GDS          1.99E-08    1.99E-08    1.98E-08    1.98E-08    2.00E-08 
GMB          3.87E-06    2.36E-06    3.87E-06    3.88E-06    1.31E-05 
CBD          0.00E+00    0.00E+00    0.00E+00    0.00E+00    0.00E+00 
CBS          0.00E+00    0.00E+00    0.00E+00    0.00E+00    0.00E+00 
CGSOV        0.00E+00    0.00E+00    0.00E+00    0.00E+00    0.00E+00 
CGDOV        0.00E+00    0.00E+00    0.00E+00    0.00E+00    0.00E+00 
CGBOV        0.00E+00    0.00E+00    0.00E+00    0.00E+00    0.00E+00 
CGS          0.00E+00    0.00E+00    0.00E+00    0.00E+00    0.00E+00 
CGD          0.00E+00    0.00E+00    0.00E+00    0.00E+00    0.00E+00 
CGB          0.00E+00    0.00E+00    0.00E+00    0.00E+00    0.00E+00 

NAME         M6        
MODEL        e_mos     
ID           1.00E-05 
VGS          3.40E+00 
VDS          4.19E+00 
VBS          0.00E+00 
VTH          1.73E+00 
VDSAT        1.67E+00 
Lin0/Sat1   -1.00E+00 
if          -1.00E+00 
ir          -1.00E+00 
TAU         -1.00E+00 
GM           1.20E-05 
GDS          1.99E-08 
GMB          3.87E-06 
CBD          0.00E+00 
CBS          0.00E+00 
CGSOV        0.00E+00 
CGDOV        0.00E+00 
CGBOV        0.00E+00 
CGS          0.00E+00 
CGD          0.00E+00 
CGB          0.00E+00 
**** 05/13/21 15:01:19 ******* PSpice Lite (March 2016) ******* ID# 10813 ****

  


 ****     INITIAL TRANSIENT SOLUTION       TEMPERATURE =   27.000 DEG C


******************************************************************************



 NODE   VOLTAGE     NODE   VOLTAGE     NODE   VOLTAGE     NODE   VOLTAGE


(    1)    3.4000  (    2)    6.8000  (    3)    6.0000  (    4)    4.1885      

(   vi)    3.4000  (  vdd)   12.0000  




    VOLTAGE SOURCE CURRENTS
    NAME         CURRENT

    vdd         -2.002E-05
    vi           0.000E+00

    TOTAL POWER DISSIPATION   2.40E-04  WATTS



          JOB CONCLUDED

**** 05/13/21 15:01:19 ******* PSpice Lite (March 2016) ******* ID# 10813 ****

  


 ****     JOB STATISTICS SUMMARY


******************************************************************************



  Total job time (using Solver 1)   =         .20
