
**** 05/13/21 16:44:12 ******* PSpice Lite (March 2016) ******* ID# 10813 ****

  


 ****     CIRCUIT DESCRIPTION


******************************************************************************



vdd vdd 0 dc 12
r1 vdd 3 40000000

M1 1 1 0 0 e_mos L=32u W=20u
M2 2 2 1 0 e_mos L=12u W=20u
M3 vdd vdd 2 0 e_mos L=240u W=20u
M4 3 1 0 0 e_mos L=240u W=20u
.model e_mos nmos (KP=1.073u Vto=1.73 gamma=0.5 lambda=0.02)

.op
.probe
.end

**** 05/13/21 16:44:12 ******* PSpice Lite (March 2016) ******* ID# 10813 ****

  


 ****     MOSFET MODEL PARAMETERS


******************************************************************************




               e_mos           
               NMOS            
       LEVEL    1            
           L  100.000000E-06 
           W  100.000000E-06 
         VTO    1.73         
          KP    1.073000E-06 
       GAMMA     .5          
         PHI     .6          
      LAMBDA     .02         
          IS   10.000000E-15 
          JS    0            
          PB     .8          
        PBSW     .8          
          CJ    0            
        CJSW    0            
        CGSO    0            
        CGDO    0            
        CGBO    0            
         TOX    0            
          XJ    0            
       UCRIT   10.000000E+03 
      DIOMOD    1            
         VFB    0            
        LETA    0            
        WETA    0            
          U0    0            
        TEMP    0            
         VDD    5            
       XPART    0            


**** 05/13/21 16:44:12 ******* PSpice Lite (March 2016) ******* ID# 10813 ****

  


 ****     SMALL SIGNAL BIAS SOLUTION       TEMPERATURE =   27.000 DEG C


******************************************************************************



 NODE   VOLTAGE     NODE   VOLTAGE     NODE   VOLTAGE     NODE   VOLTAGE


(    1)    2.9811  (    2)    6.0356  (    3)    8.7127  (  vdd)   12.0000  




    VOLTAGE SOURCE CURRENTS
    NAME         CURRENT

    vdd         -6.383E-07

    TOTAL POWER DISSIPATION   7.66E-06  WATTS


**** 05/13/21 16:44:12 ******* PSpice Lite (March 2016) ******* ID# 10813 ****

  


 ****     OPERATING POINT INFORMATION      TEMPERATURE =   27.000 DEG C


******************************************************************************






**** MOSFETS


NAME         M1          M2          M3          M4        
MODEL        e_mos       e_mos       e_mos       e_mos     
ID           5.56E-07    5.56E-07    5.56E-07    8.22E-08 
VGS          2.98E+00    3.05E+00    5.96E+00    2.98E+00 
VDS          2.98E+00    3.05E+00    5.96E+00    8.71E+00 
VBS          0.00E+00   -2.98E+00   -6.04E+00    0.00E+00 
VTH          1.73E+00    2.29E+00    2.63E+00    1.73E+00 
VDSAT        1.25E+00    7.66E-01    3.33E+00    1.25E+00 
Lin0/Sat1   -1.00E+00   -1.00E+00   -1.00E+00   -1.00E+00 
if          -1.00E+00   -1.00E+00   -1.00E+00   -1.00E+00 
ir          -1.00E+00   -1.00E+00   -1.00E+00   -1.00E+00 
TAU         -1.00E+00   -1.00E+00   -1.00E+00   -1.00E+00 
GM           8.89E-07    1.45E-06    3.34E-07    1.31E-07 
GDS          1.05E-08    1.05E-08    9.94E-09    1.40E-09 
GMB          2.87E-07    1.92E-07    3.24E-08    4.24E-08 
CBD          0.00E+00    0.00E+00    0.00E+00    0.00E+00 
CBS          0.00E+00    0.00E+00    0.00E+00    0.00E+00 
CGSOV        0.00E+00    0.00E+00    0.00E+00    0.00E+00 
CGDOV        0.00E+00    0.00E+00    0.00E+00    0.00E+00 
CGBOV        0.00E+00    0.00E+00    0.00E+00    0.00E+00 
CGS          0.00E+00    0.00E+00    0.00E+00    0.00E+00 
CGD          0.00E+00    0.00E+00    0.00E+00    0.00E+00 
CGB          0.00E+00    0.00E+00    0.00E+00    0.00E+00 

          JOB CONCLUDED

**** 05/13/21 16:44:12 ******* PSpice Lite (March 2016) ******* ID# 10813 ****

  


 ****     JOB STATISTICS SUMMARY


******************************************************************************



  Total job time (using Solver 1)   =         .03
