
**** 05/06/21 16:18:28 ******* PSpice Lite (March 2016) ******* ID# 10813 ****

  


 ****     CIRCUIT DESCRIPTION


******************************************************************************



vdd vdd 0 dc 12

vi vi 0 sin(6 0.002 100)
*vi vi 0 dc 6

M1 1 1 0 0 e_mos L=0.1u W=0.16322548u
M2 2 2 1 0 e_mos L=0.1u W=1.84516948u
M3 vdd vdd 2 0 e_mos L=0.1u W=1.84516948u
M4 3 1 0 0 e_mos L=0.1u W=0.101016892u
M5 3 vi vdd vdd d_mos L=0.1u W=0.031057841u
.model e_mos nmos (KP=1.073u Vto=1.73 lambda=0.02)
.model d_mos pmos (KP=10.43u Vto=-3.533 lambda=0.02)
.op
.tran 0.1m 40m 0m 0.01m
.probe
.end

**** 05/06/21 16:18:28 ******* PSpice Lite (March 2016) ******* ID# 10813 ****

  


 ****     MOSFET MODEL PARAMETERS


******************************************************************************




               e_mos           d_mos           
               NMOS            PMOS            
       LEVEL    1               1            
           L  100.000000E-06  100.000000E-06 
           W  100.000000E-06  100.000000E-06 
         VTO    1.73           -3.533        
          KP    1.073000E-06   10.430000E-06 
       GAMMA    0               0            
         PHI     .6              .6          
      LAMBDA     .02             .02         
          IS   10.000000E-15   10.000000E-15 
          JS    0               0            
          PB     .8              .8          
        PBSW     .8              .8          
          CJ    0               0            
        CJSW    0               0            
        CGSO    0               0            
        CGDO    0               0            
        CGBO    0               0            
         TOX    0               0            
          XJ    0               0            
       UCRIT   10.000000E+03   10.000000E+03 
      DIOMOD    1               1            
         VFB    0               0            
        LETA    0               0            
        WETA    0               0            
          U0    0               0            
        TEMP    0               0            
         VDD    5               5            
       XPART    0               0            


**** 05/06/21 16:18:28 ******* PSpice Lite (March 2016) ******* ID# 10813 ****

  


 ****     SMALL SIGNAL BIAS SOLUTION       TEMPERATURE =   27.000 DEG C


******************************************************************************



 NODE   VOLTAGE     NODE   VOLTAGE     NODE   VOLTAGE     NODE   VOLTAGE


(    1)    5.9569  (    2)    8.9785  (    3)    6.4994  (   vi)    6.0000      

(  vdd)   12.0000  




    VOLTAGE SOURCE CURRENTS
    NAME         CURRENT

    vdd         -2.845E-05
    vi           0.000E+00

    TOTAL POWER DISSIPATION   3.41E-04  WATTS


**** 05/06/21 16:18:28 ******* PSpice Lite (March 2016) ******* ID# 10813 ****

  


 ****     OPERATING POINT INFORMATION      TEMPERATURE =   27.000 DEG C


******************************************************************************






**** MOSFETS


NAME         M1          M2          M3          M4          M5        
MODEL        e_mos       e_mos       e_mos       e_mos       d_mos     
ID           1.75E-05    1.75E-05    1.75E-05    1.09E-05   -1.09E-05 
VGS          5.96E+00    3.02E+00    3.02E+00    5.96E+00   -6.00E+00 
VDS          5.96E+00    3.02E+00    3.02E+00    6.50E+00   -5.50E+00 
VBS          0.00E+00   -5.96E+00   -8.98E+00    0.00E+00    0.00E+00 
VTH          1.73E+00    1.73E+00    1.73E+00    1.73E+00   -3.53E+00 
VDSAT        4.23E+00    1.29E+00    1.29E+00    4.23E+00   -2.47E+00 
Lin0/Sat1   -1.00E+00   -1.00E+00   -1.00E+00   -1.00E+00   -1.00E+00 
if          -1.00E+00   -1.00E+00   -1.00E+00   -1.00E+00   -1.00E+00 
ir          -1.00E+00   -1.00E+00   -1.00E+00   -1.00E+00   -1.00E+00 
TAU         -1.00E+00   -1.00E+00   -1.00E+00   -1.00E+00   -1.00E+00 
GM           8.29E-06    2.71E-05    2.71E-05    5.18E-06    8.87E-06 
GDS          3.13E-07    3.30E-07    3.30E-07    1.94E-07    1.97E-07 
GMB          0.00E+00    0.00E+00    0.00E+00    0.00E+00    0.00E+00 
CBD          0.00E+00    0.00E+00    0.00E+00    0.00E+00    0.00E+00 
CBS          0.00E+00    0.00E+00    0.00E+00    0.00E+00    0.00E+00 
CGSOV        0.00E+00    0.00E+00    0.00E+00    0.00E+00    0.00E+00 
CGDOV        0.00E+00    0.00E+00    0.00E+00    0.00E+00    0.00E+00 
CGBOV        0.00E+00    0.00E+00    0.00E+00    0.00E+00    0.00E+00 
CGS          0.00E+00    0.00E+00    0.00E+00    0.00E+00    0.00E+00 
CGD          0.00E+00    0.00E+00    0.00E+00    0.00E+00    0.00E+00 
CGB          0.00E+00    0.00E+00    0.00E+00    0.00E+00    0.00E+00 
**** 05/06/21 16:18:28 ******* PSpice Lite (March 2016) ******* ID# 10813 ****

  


 ****     INITIAL TRANSIENT SOLUTION       TEMPERATURE =   27.000 DEG C


******************************************************************************



 NODE   VOLTAGE     NODE   VOLTAGE     NODE   VOLTAGE     NODE   VOLTAGE


(    1)    5.9569  (    2)    8.9785  (    3)    6.4994  (   vi)    6.0000      

(  vdd)   12.0000  




    VOLTAGE SOURCE CURRENTS
    NAME         CURRENT

    vdd         -2.845E-05
    vi           0.000E+00

    TOTAL POWER DISSIPATION   3.41E-04  WATTS



          JOB CONCLUDED

**** 05/06/21 16:18:28 ******* PSpice Lite (March 2016) ******* ID# 10813 ****

  


 ****     JOB STATISTICS SUMMARY


******************************************************************************



  Total job time (using Solver 1)   =         .14
