
**** 04/17/21 00:14:31 ******* PSpice Lite (March 2016) ******* ID# 10813 ****

  


 ****     CIRCUIT DESCRIPTION


******************************************************************************



*v1 1 0 dc 6
*v2 5 0 dc 6 
*v3 4 0 dc -6
*v4 9 0 dc -6
vdd vdd 0 dc 6
vss vss 0 dc -6


rb 5 vss 207.10678118
M8  1 1 vdd vdd d_mos L=1u W=1u
M9  2 1 vdd vdd d_mos L=1u W=1u
M10 1 2 4 4 e_mos W=1u L=1u
M11 2 2 3 3 e_mos W=1u L=1u
M12 4 3 5 5 e_mos W=2u L=1u
M13 3 3 vss vss e_mos W=1u L=1u


 

.model e_mos nmos ( kp = 0.004 Vto = 2V lambda=0.02)
.model d_mos pmos ( kp = 0.004 Vto = -2V lambda=0.02)
*.dc vdd 0 15 0.01 vgs 1 6 1
.op
*.probe
.end

**** 04/17/21 00:14:31 ******* PSpice Lite (March 2016) ******* ID# 10813 ****

  


 ****     MOSFET MODEL PARAMETERS


******************************************************************************




               e_mos           d_mos           
               NMOS            PMOS            
       LEVEL    1               1            
           L  100.000000E-06  100.000000E-06 
           W  100.000000E-06  100.000000E-06 
         VTO    2              -2            
          KP    4.000000E-03    4.000000E-03 
       GAMMA    0               0            
         PHI     .6              .6          
      LAMBDA     .02             .02         
          IS   10.000000E-15   10.000000E-15 
          JS    0               0            
          PB     .8              .8          
        PBSW     .8              .8          
          CJ    0               0            
        CJSW    0               0            
        CGSO    0               0            
        CGDO    0               0            
        CGBO    0               0            
         TOX    0               0            
          XJ    0               0            
       UCRIT   10.000000E+03   10.000000E+03 
      DIOMOD    1               1            
         VFB    0               0            
        LETA    0               0            
        WETA    0               0            
          U0    0               0            
        TEMP    0               0            
         VDD    5               5            
       XPART    0               0            


**** 04/17/21 00:14:31 ******* PSpice Lite (March 2016) ******* ID# 10813 ****

  


 ****     SMALL SIGNAL BIAS SOLUTION       TEMPERATURE =   27.000 DEG C


******************************************************************************



 NODE   VOLTAGE     NODE   VOLTAGE     NODE   VOLTAGE     NODE   VOLTAGE


(    1)    3.2537  (    2)    -.4563  (    3)   -3.2281  (    4)   -3.1777      

(    5)   -5.7567  (  vdd)    6.0000  (  vss)   -6.0000  




    VOLTAGE SOURCE CURRENTS
    NAME         CURRENT

    vdd         -2.433E-03
    vss          2.433E-03

    TOTAL POWER DISSIPATION   2.92E-02  WATTS


**** 04/17/21 00:14:31 ******* PSpice Lite (March 2016) ******* ID# 10813 ****

  


 ****     OPERATING POINT INFORMATION      TEMPERATURE =   27.000 DEG C


******************************************************************************






**** MOSFETS


NAME         M8          M9          M10         M11         M12       
MODEL        d_mos       d_mos       e_mos       e_mos       e_mos     
ID          -1.18E-03   -1.26E-03    1.18E-03    1.26E-03    1.18E-03 
VGS         -2.75E+00   -2.75E+00    2.72E+00    2.77E+00    2.53E+00 
VDS         -2.75E+00   -6.46E+00    6.43E+00    2.77E+00    2.58E+00 
VBS          0.00E+00    0.00E+00    0.00E+00    0.00E+00    0.00E+00 
VTH         -2.00E+00   -2.00E+00    2.00E+00    2.00E+00    2.00E+00 
VDSAT       -7.46E-01   -7.46E-01    7.21E-01    7.72E-01    5.29E-01 
Lin0/Sat1   -1.00E+00   -1.00E+00   -1.00E+00   -1.00E+00   -1.00E+00 
if          -1.00E+00   -1.00E+00   -1.00E+00   -1.00E+00   -1.00E+00 
ir          -1.00E+00   -1.00E+00   -1.00E+00   -1.00E+00   -1.00E+00 
TAU         -1.00E+00   -1.00E+00   -1.00E+00   -1.00E+00   -1.00E+00 
GM           3.15E-03    3.37E-03    3.26E-03    3.26E-03    4.45E-03 
GDS          2.23E-05    2.23E-05    2.08E-05    2.38E-05    2.23E-05 
GMB          0.00E+00    0.00E+00    0.00E+00    0.00E+00    0.00E+00 
CBD          0.00E+00    0.00E+00    0.00E+00    0.00E+00    0.00E+00 
CBS          0.00E+00    0.00E+00    0.00E+00    0.00E+00    0.00E+00 
CGSOV        0.00E+00    0.00E+00    0.00E+00    0.00E+00    0.00E+00 
CGDOV        0.00E+00    0.00E+00    0.00E+00    0.00E+00    0.00E+00 
CGBOV        0.00E+00    0.00E+00    0.00E+00    0.00E+00    0.00E+00 
CGS          0.00E+00    0.00E+00    0.00E+00    0.00E+00    0.00E+00 
CGD          0.00E+00    0.00E+00    0.00E+00    0.00E+00    0.00E+00 
CGB          0.00E+00    0.00E+00    0.00E+00    0.00E+00    0.00E+00 

NAME         M13       
MODEL        e_mos     
ID           1.26E-03 
VGS          2.77E+00 
VDS          2.77E+00 
VBS          0.00E+00 
VTH          2.00E+00 
VDSAT        7.72E-01 
Lin0/Sat1   -1.00E+00 
if          -1.00E+00 
ir          -1.00E+00 
TAU         -1.00E+00 
GM           3.26E-03 
GDS          2.38E-05 
GMB          0.00E+00 
CBD          0.00E+00 
CBS          0.00E+00 
CGSOV        0.00E+00 
CGDOV        0.00E+00 
CGBOV        0.00E+00 
CGS          0.00E+00 
CGD          0.00E+00 
CGB          0.00E+00 

          JOB CONCLUDED

**** 04/17/21 00:14:31 ******* PSpice Lite (March 2016) ******* ID# 10813 ****

  


 ****     JOB STATISTICS SUMMARY


******************************************************************************



  Total job time (using Solver 1)   =         .02

**** 04/17/21 00:14:31 ******* PSpice Lite (March 2016) ******* ID# 10813 ****

  


 ****     CIRCUIT DESCRIPTION


******************************************************************************




