
**** 04/22/21 13:51:01 ******* PSpice Lite (March 2016) ******* ID# 10813 ****

  


 ****     CIRCUIT DESCRIPTION


******************************************************************************



*v1 1 0 dc 6
*v2 5 0 dc 6 
*v3 4 0 dc -6
*v4 9 0 dc -6
vdd vdd 0 dc 4
vss vss 0 dc -4

v6 v6 0 dc -1.3318
v7 v7 0 dc 2.685

rb 5 vss 207.10678118
M8  1 1 vdd vdd d_mos L=1u W=1u
M9  2 1 vdd vdd d_mos L=1u W=1u
M10 1 2 4 4 e_mos W=1u L=1u
M11 2 2 3 3 e_mos W=1u L=1u
M12 4 3 5 5 e_mos W=2u L=1u
M13 3 3 vss vss e_mos W=1u L=1u

M2 7 1 vdd vdd d_mos L=1u W=1u
M3 6 1 vdd vdd d_mos L=1u W=1u
M4 6 6 vss vss e_mos W=1u L=1u
M5 8 6 vss vss e_mos W=1u L=1u
M6 7 v6 vss vss e_mos W=1u L=1u
M7 vdd v7 8 8 e_mos W=1u L=1u
 

.model e_mos nmos ( kp = 0.004 Vto = 2V lambda=0.02)
.model d_mos pmos ( kp = 0.004 Vto = -2V lambda=0.02)
*.dc v6 0 15 0.01 v7 1 6 1
.op
*.probe
.end

**** 04/22/21 13:51:01 ******* PSpice Lite (March 2016) ******* ID# 10813 ****

  


 ****     MOSFET MODEL PARAMETERS


******************************************************************************




               e_mos           d_mos           
               NMOS            PMOS            
       LEVEL    1               1            
           L  100.000000E-06  100.000000E-06 
           W  100.000000E-06  100.000000E-06 
         VTO    2              -2            
          KP    4.000000E-03    4.000000E-03 
       GAMMA    0               0            
         PHI     .6              .6          
      LAMBDA     .02             .02         
          IS   10.000000E-15   10.000000E-15 
          JS    0               0            
          PB     .8              .8          
        PBSW     .8              .8          
          CJ    0               0            
        CJSW    0               0            
        CGSO    0               0            
        CGDO    0               0            
        CGBO    0               0            
         TOX    0               0            
          XJ    0               0            
       UCRIT   10.000000E+03   10.000000E+03 
      DIOMOD    1               1            
         VFB    0               0            
        LETA    0               0            
        WETA    0               0            
          U0    0               0            
        TEMP    0               0            
         VDD    5               5            
       XPART    0               0            


**** 04/22/21 13:51:01 ******* PSpice Lite (March 2016) ******* ID# 10813 ****

  


 ****     SMALL SIGNAL BIAS SOLUTION       TEMPERATURE =   27.000 DEG C


******************************************************************************



 NODE   VOLTAGE     NODE   VOLTAGE     NODE   VOLTAGE     NODE   VOLTAGE


(    1)    1.3318  (    2)    1.3363  (    3)   -1.3318  (    4)   -1.3319      

(    5)   -3.8052  (    6)   -1.3153  (    7)    -.0015  (    8) 336.0E-06      

(   v6)   -1.3318  (   v7)    2.6850  (  vdd)    4.0000  (  vss)   -4.0000  




    VOLTAGE SOURCE CURRENTS
    NAME         CURRENT

    vdd         -4.846E-03
    vss          4.846E-03
    v6           0.000E+00
    v7           0.000E+00

    TOTAL POWER DISSIPATION   3.88E-02  WATTS


**** 04/22/21 13:51:01 ******* PSpice Lite (March 2016) ******* ID# 10813 ****

  


 ****     OPERATING POINT INFORMATION      TEMPERATURE =   27.000 DEG C


******************************************************************************






**** MOSFETS


NAME         M8          M9          M10         M11         M12       
MODEL        d_mos       d_mos       e_mos       e_mos       e_mos     
ID          -9.41E-04   -9.41E-04    9.41E-04    9.41E-04    9.41E-04 
VGS         -2.67E+00   -2.67E+00    2.67E+00    2.67E+00    2.47E+00 
VDS         -2.67E+00   -2.66E+00    2.66E+00    2.67E+00    2.47E+00 
VBS          0.00E+00    0.00E+00    0.00E+00    0.00E+00    0.00E+00 
VTH         -2.00E+00   -2.00E+00    2.00E+00    2.00E+00    2.00E+00 
VDSAT       -6.68E-01   -6.68E-01    6.68E-01    6.68E-01    4.73E-01 
Lin0/Sat1   -1.00E+00   -1.00E+00   -1.00E+00   -1.00E+00   -1.00E+00 
if          -1.00E+00   -1.00E+00   -1.00E+00   -1.00E+00   -1.00E+00 
ir          -1.00E+00   -1.00E+00   -1.00E+00   -1.00E+00   -1.00E+00 
TAU         -1.00E+00   -1.00E+00   -1.00E+00   -1.00E+00   -1.00E+00 
GM           2.82E-03    2.82E-03    2.82E-03    2.82E-03    3.97E-03 
GDS          1.79E-05    1.79E-05    1.79E-05    1.79E-05    1.79E-05 
GMB          0.00E+00    0.00E+00    0.00E+00    0.00E+00    0.00E+00 
CBD          0.00E+00    0.00E+00    0.00E+00    0.00E+00    0.00E+00 
CBS          0.00E+00    0.00E+00    0.00E+00    0.00E+00    0.00E+00 
CGSOV        0.00E+00    0.00E+00    0.00E+00    0.00E+00    0.00E+00 
CGDOV        0.00E+00    0.00E+00    0.00E+00    0.00E+00    0.00E+00 
CGBOV        0.00E+00    0.00E+00    0.00E+00    0.00E+00    0.00E+00 
CGS          0.00E+00    0.00E+00    0.00E+00    0.00E+00    0.00E+00 
CGD          0.00E+00    0.00E+00    0.00E+00    0.00E+00    0.00E+00 
CGB          0.00E+00    0.00E+00    0.00E+00    0.00E+00    0.00E+00 

NAME         M13         M2          M3          M4          M5        
MODEL        e_mos       d_mos       d_mos       e_mos       e_mos     
ID           9.41E-04   -9.64E-04   -9.88E-04    9.88E-04    1.01E-03 
VGS          2.67E+00   -2.67E+00   -2.67E+00    2.68E+00    2.68E+00 
VDS          2.67E+00   -4.00E+00   -5.32E+00    2.68E+00    4.00E+00 
VBS          0.00E+00    0.00E+00    0.00E+00    0.00E+00    0.00E+00 
VTH          2.00E+00   -2.00E+00   -2.00E+00    2.00E+00    2.00E+00 
VDSAT        6.68E-01   -6.68E-01   -6.68E-01    6.85E-01    6.85E-01 
Lin0/Sat1   -1.00E+00   -1.00E+00   -1.00E+00   -1.00E+00   -1.00E+00 
if          -1.00E+00   -1.00E+00   -1.00E+00   -1.00E+00   -1.00E+00 
ir          -1.00E+00   -1.00E+00   -1.00E+00   -1.00E+00   -1.00E+00 
TAU         -1.00E+00   -1.00E+00   -1.00E+00   -1.00E+00   -1.00E+00 
GM           2.82E-03    2.89E-03    2.96E-03    2.89E-03    2.96E-03 
GDS          1.79E-05    1.79E-05    1.79E-05    1.88E-05    1.88E-05 
GMB          0.00E+00    0.00E+00    0.00E+00    0.00E+00    0.00E+00 
CBD          0.00E+00    0.00E+00    0.00E+00    0.00E+00    0.00E+00 
CBS          0.00E+00    0.00E+00    0.00E+00    0.00E+00    0.00E+00 
CGSOV        0.00E+00    0.00E+00    0.00E+00    0.00E+00    0.00E+00 
CGDOV        0.00E+00    0.00E+00    0.00E+00    0.00E+00    0.00E+00 
CGBOV        0.00E+00    0.00E+00    0.00E+00    0.00E+00    0.00E+00 
CGS          0.00E+00    0.00E+00    0.00E+00    0.00E+00    0.00E+00 
CGD          0.00E+00    0.00E+00    0.00E+00    0.00E+00    0.00E+00 
CGB          0.00E+00    0.00E+00    0.00E+00    0.00E+00    0.00E+00 

NAME         M6          M7        
MODEL        e_mos       e_mos     
ID           9.64E-04    1.01E-03 
VGS          2.67E+00    2.68E+00 
VDS          4.00E+00    4.00E+00 
VBS          0.00E+00    0.00E+00 
VTH          2.00E+00    2.00E+00 
VDSAT        6.68E-01    6.85E-01 
Lin0/Sat1   -1.00E+00   -1.00E+00 
if          -1.00E+00   -1.00E+00 
ir          -1.00E+00   -1.00E+00 
TAU         -1.00E+00   -1.00E+00 
GM           2.89E-03    2.96E-03 
GDS          1.79E-05    1.88E-05 
GMB          0.00E+00    0.00E+00 
CBD          0.00E+00    0.00E+00 
CBS          0.00E+00    0.00E+00 
CGSOV        0.00E+00    0.00E+00 
CGDOV        0.00E+00    0.00E+00 
CGBOV        0.00E+00    0.00E+00 
CGS          0.00E+00    0.00E+00 
CGD          0.00E+00    0.00E+00 
CGB          0.00E+00    0.00E+00 

          JOB CONCLUDED

**** 04/22/21 13:51:01 ******* PSpice Lite (March 2016) ******* ID# 10813 ****

  


 ****     JOB STATISTICS SUMMARY


******************************************************************************



  Total job time (using Solver 1)   =         .03

**** 04/22/21 13:51:01 ******* PSpice Lite (March 2016) ******* ID# 10813 ****

  


 ****     CIRCUIT DESCRIPTION


******************************************************************************




