
**** 04/15/21 14:44:23 ******* PSpice Lite (March 2016) ******* ID# 10813 ****

  


 ****     CIRCUIT DESCRIPTION


******************************************************************************



r1 1 2 4585.78644
*i1 1 2 dc 1m
vdd 1 0 dc 8
vo 4 0 dc 4
M1 3 3 0 0 e_mos L=1u W=1u
M2 5 3 0 0 e_mos L=1u W=1u
M3 2 2 3 0 e_mos L=1u W=1u
M4 4 2 5 0 e_mos L=1u W=1u
.model e_mos nmos (KP=4m Vto=2V lambda=0.02)

.dc vo 0 15 0.01
.op
.probe
.end

**** 04/15/21 14:44:23 ******* PSpice Lite (March 2016) ******* ID# 10813 ****

  


 ****     MOSFET MODEL PARAMETERS


******************************************************************************




               e_mos           
               NMOS            
       LEVEL    1            
           L  100.000000E-06 
           W  100.000000E-06 
         VTO    2            
          KP    4.000000E-03 
       GAMMA    0            
         PHI     .6          
      LAMBDA     .02         
          IS   10.000000E-15 
          JS    0            
          PB     .8          
        PBSW     .8          
          CJ    0            
        CJSW    0            
        CGSO    0            
        CGDO    0            
        CGBO    0            
         TOX    0            
          XJ    0            
       UCRIT   10.000000E+03 
      DIOMOD    1            
         VFB    0            
        LETA    0            
        WETA    0            
          U0    0            
        TEMP    0            
         VDD    5            
       XPART    0            


**** 04/15/21 14:44:23 ******* PSpice Lite (March 2016) ******* ID# 10813 ****

  


 ****     SMALL SIGNAL BIAS SOLUTION       TEMPERATURE =   27.000 DEG C


******************************************************************************



 NODE   VOLTAGE     NODE   VOLTAGE     NODE   VOLTAGE     NODE   VOLTAGE


(    1)    8.0000  (    2)    5.0975  (    3)    2.5487  (    4)    4.0000      

(    5)    2.5430  




    VOLTAGE SOURCE CURRENTS
    NAME         CURRENT

    vdd         -6.329E-04
    vo          -6.329E-04

    TOTAL POWER DISSIPATION   7.60E-03  WATTS


**** 04/15/21 14:44:23 ******* PSpice Lite (March 2016) ******* ID# 10813 ****

  


 ****     OPERATING POINT INFORMATION      TEMPERATURE =   27.000 DEG C


******************************************************************************






**** MOSFETS


NAME         M1          M2          M3          M4        
MODEL        e_mos       e_mos       e_mos       e_mos     
ID           6.33E-04    6.33E-04    6.33E-04    6.33E-04 
VGS          2.55E+00    2.55E+00    2.55E+00    2.55E+00 
VDS          2.55E+00    2.54E+00    2.55E+00    1.46E+00 
VBS          0.00E+00    0.00E+00   -2.55E+00   -2.54E+00 
VTH          2.00E+00    2.00E+00    2.00E+00    2.00E+00 
VDSAT        5.49E-01    5.49E-01    5.49E-01    5.55E-01 
Lin0/Sat1   -1.00E+00   -1.00E+00   -1.00E+00   -1.00E+00 
if          -1.00E+00   -1.00E+00   -1.00E+00   -1.00E+00 
ir          -1.00E+00   -1.00E+00   -1.00E+00   -1.00E+00 
TAU         -1.00E+00   -1.00E+00   -1.00E+00   -1.00E+00 
GM           2.31E-03    2.31E-03    2.31E-03    2.28E-03 
GDS          1.20E-05    1.20E-05    1.20E-05    1.23E-05 
GMB          0.00E+00    0.00E+00    0.00E+00    0.00E+00 
CBD          0.00E+00    0.00E+00    0.00E+00    0.00E+00 
CBS          0.00E+00    0.00E+00    0.00E+00    0.00E+00 
CGSOV        0.00E+00    0.00E+00    0.00E+00    0.00E+00 
CGDOV        0.00E+00    0.00E+00    0.00E+00    0.00E+00 
CGBOV        0.00E+00    0.00E+00    0.00E+00    0.00E+00 
CGS          0.00E+00    0.00E+00    0.00E+00    0.00E+00 
CGD          0.00E+00    0.00E+00    0.00E+00    0.00E+00 
CGB          0.00E+00    0.00E+00    0.00E+00    0.00E+00 

          JOB CONCLUDED

**** 04/15/21 14:44:23 ******* PSpice Lite (March 2016) ******* ID# 10813 ****

  


 ****     JOB STATISTICS SUMMARY


******************************************************************************



  Total job time (using Solver 1)   =         .11
