
**** 04/16/21 23:58:57 ******* PSpice Lite (March 2016) ******* ID# 10813 ****

 vdd vdd 0 dc 4


 ****     CIRCUIT DESCRIPTION


******************************************************************************



vss vss 0 dc -4
vo vo 0 dc 0
r1 1 0 2280
*i1 1 2 dc 1m

M1 1 1 vss vss e_mos L=1u W=1u
M2 vo 1 vss vss e_mos L=1u W=1u
M3 2 1 vss vss e_mos L=1u W=1u
M4 vdd 2 2 vdd p_mos L=1u W=1u
M5 vdd 2 vo vdd p_mos L=1u W=1u
.model e_mos nmos (KP=4m Vto=2V lambda=0.02)
.model p_mos pmos (KP=4m Vto=-2V lambda=0.02)
*.dc v3 0 15 0.01
*.dc v8 0 15 0.01
.op
.probe
.end

**** 04/16/21 23:58:57 ******* PSpice Lite (March 2016) ******* ID# 10813 ****

 vdd vdd 0 dc 4


 ****     MOSFET MODEL PARAMETERS


******************************************************************************




               e_mos           p_mos           
               NMOS            PMOS            
       LEVEL    1               1            
           L  100.000000E-06  100.000000E-06 
           W  100.000000E-06  100.000000E-06 
         VTO    2              -2            
          KP    4.000000E-03    4.000000E-03 
       GAMMA    0               0            
         PHI     .6              .6          
      LAMBDA     .02             .02         
          IS   10.000000E-15   10.000000E-15 
          JS    0               0            
          PB     .8              .8          
        PBSW     .8              .8          
          CJ    0               0            
        CJSW    0               0            
        CGSO    0               0            
        CGDO    0               0            
        CGBO    0               0            
         TOX    0               0            
          XJ    0               0            
       UCRIT   10.000000E+03   10.000000E+03 
      DIOMOD    1               1            
         VFB    0               0            
        LETA    0               0            
        WETA    0               0            
          U0    0               0            
        TEMP    0               0            
         VDD    5               5            
       XPART    0               0            


**** 04/16/21 23:58:57 ******* PSpice Lite (March 2016) ******* ID# 10813 ****

 vdd vdd 0 dc 4


 ****     SMALL SIGNAL BIAS SOLUTION       TEMPERATURE =   27.000 DEG C


******************************************************************************



 NODE   VOLTAGE     NODE   VOLTAGE     NODE   VOLTAGE     NODE   VOLTAGE


(    1)   -1.4500  (    2)   -2.7768  (   vo)    0.0000  (  vdd)    -.2337      

(  vss)   -4.0000  




    VOLTAGE SOURCE CURRENTS
    NAME         CURRENT

    vss          1.909E-03
    vo          -1.273E-03

    TOTAL POWER DISSIPATION   7.64E-03  WATTS


**** 04/16/21 23:58:57 ******* PSpice Lite (March 2016) ******* ID# 10813 ****

 vdd vdd 0 dc 4


 ****     OPERATING POINT INFORMATION      TEMPERATURE =   27.000 DEG C


******************************************************************************






**** MOSFETS


NAME         M1          M2          M3          M4          M5        
MODEL        e_mos       e_mos       e_mos       p_mos       p_mos     
ID           6.36E-04    6.54E-04    6.20E-04    6.20E-04   -6.20E-04 
VGS          2.55E+00    2.55E+00    2.55E+00    0.00E+00   -2.78E+00 
VDS          2.55E+00    4.00E+00    1.22E+00    2.54E+00   -2.34E-01 
VBS          0.00E+00    0.00E+00    0.00E+00    2.54E+00   -2.34E-01 
VTH          2.00E+00    2.00E+00    2.00E+00   -2.00E+00   -2.00E+00 
VDSAT        5.50E-01    5.50E-01    5.50E-01   -5.43E-01   -7.77E-01 
Lin0/Sat1   -1.00E+00   -1.00E+00   -1.00E+00   -1.00E+00   -1.00E+00 
if          -1.00E+00   -1.00E+00   -1.00E+00   -1.00E+00   -1.00E+00 
ir          -1.00E+00   -1.00E+00   -1.00E+00   -1.00E+00   -1.00E+00 
TAU         -1.00E+00   -1.00E+00   -1.00E+00   -1.00E+00   -1.00E+00 
GM           2.31E-03    2.38E-03    2.25E-03    2.28E-03    9.39E-04 
GDS          1.21E-05    1.21E-05    1.21E-05    1.18E-05    2.19E-03 
GMB          0.00E+00    0.00E+00    0.00E+00    0.00E+00    0.00E+00 
CBD          0.00E+00    0.00E+00    0.00E+00    0.00E+00    0.00E+00 
CBS          0.00E+00    0.00E+00    0.00E+00    0.00E+00    0.00E+00 
CGSOV        0.00E+00    0.00E+00    0.00E+00    0.00E+00    0.00E+00 
CGDOV        0.00E+00    0.00E+00    0.00E+00    0.00E+00    0.00E+00 
CGBOV        0.00E+00    0.00E+00    0.00E+00    0.00E+00    0.00E+00 
CGS          0.00E+00    0.00E+00    0.00E+00    0.00E+00    0.00E+00 
CGD          0.00E+00    0.00E+00    0.00E+00    0.00E+00    0.00E+00 
CGB          0.00E+00    0.00E+00    0.00E+00    0.00E+00    0.00E+00 

          JOB CONCLUDED

**** 04/16/21 23:58:57 ******* PSpice Lite (March 2016) ******* ID# 10813 ****

 vdd vdd 0 dc 4


 ****     JOB STATISTICS SUMMARY


******************************************************************************



  Total job time (using Solver 1)   =        0.00
