
**** 05/10/22 10:13:06 ******* PSpice Lite (March 2016) ******* ID# 10813 ****

  


 ****     CIRCUIT DESCRIPTION


******************************************************************************



vdd 1 0 dc 12v
m3 1 1 2 0 aaa3
m2 2 2 3 0 aaa2
m1 3 3 0 0 aaa1
ma3 4 4 1 1 bbbma3
ma4 6 4 1 1 bbbma4
ma1 4 7 5 0 aaaa1
ma2 6 8 5 0 aaaa2
m4 5 3 0 0 aaa4
.model aaa1 nmos(kp=1.073u vto=1.73 lambda=0.002 gamma=0 w=11.49 l=1 )
.model aaa2 nmos(kp=1.073u vto=1.73 lambda=0.002 phi=0.6 gamma=0.5 w=36.75 l=1)
.model aaa3 nmos(kp=1.073u vto=1.73 lambda=0.002 phi=0.6 gamma=0.5 w=1.62 l=1)
.model aaa4 nmos(kp=1.073u vto=1.73 lambda=0.002 gamma=0 w=11.49 l=1)
.model aaaa1 nmos(kp=1.073u vto=1.73 lambda=0.002 phi=0.6 gamma=0.5 w=16.9 l=1)
.model aaaa2 nmos(kp=1.073u vto=1.73 lambda=0.002 phi=0.6 gamma=0.5 w=16.9 l=1)
.model bbbma3 pmos(kp=10.43u vto=-3.533 lambda=0.002 gamma=0 w=0.16 l=1)
.model bbbma4 pmos(kp=10.43u vto=-3.533 lambda=0.002 gamma=0 w=0.16 l=1)
*vo 6 0 dc 6v

vs 7 70 dc 6v
vss 70 0 sin(0 0.674 1k 0 0 0)
vl 8 80 dc 6v
vll 80 0 sin(0 0.674 1k 0 0 0)
.op
.tran 0.01m 20m 0 0.01m
.probe
.end

**** 05/10/22 10:13:06 ******* PSpice Lite (March 2016) ******* ID# 10813 ****

  


 ****     MOSFET MODEL PARAMETERS


******************************************************************************




               aaa1            aaa2            aaa3            aaa4            
               NMOS            NMOS            NMOS            NMOS            
       LEVEL    1               1               1               1            
           L    1               1               1               1            
           W   11.49           36.75            1.62           11.49         
         VTO    1.73            1.73            1.73            1.73         
          KP    1.073000E-06    1.073000E-06    1.073000E-06    1.073000E-06 
       GAMMA    0                .5              .5             0            
         PHI     .6              .6              .6              .6          
      LAMBDA    2.000000E-03    2.000000E-03    2.000000E-03    2.000000E-03 
          IS   10.000000E-15   10.000000E-15   10.000000E-15   10.000000E-15 
          JS    0               0               0               0            
          PB     .8              .8              .8              .8          
        PBSW     .8              .8              .8              .8          
          CJ    0               0               0               0            
        CJSW    0               0               0               0            
        CGSO    0               0               0               0            
        CGDO    0               0               0               0            
        CGBO    0               0               0               0            
         TOX    0               0               0               0            
          XJ    0               0               0               0            
       UCRIT   10.000000E+03   10.000000E+03   10.000000E+03   10.000000E+03 
      DIOMOD    1               1               1               1            
         VFB    0               0               0               0            
        LETA    0               0               0               0            
        WETA    0               0               0               0            
          U0    0               0               0               0            
        TEMP    0               0               0               0            
         VDD    5               5               5               5            
       XPART    0               0               0               0            


               aaaa1           aaaa2           bbbma3          bbbma4          
               NMOS            NMOS            PMOS            PMOS            
       LEVEL    1               1               1               1            
           L    1               1               1               1            
           W   16.9            16.9              .16             .16         
         VTO    1.73            1.73           -3.533          -3.533        
          KP    1.073000E-06    1.073000E-06   10.430000E-06   10.430000E-06 
       GAMMA     .5              .5             0               0            
         PHI     .6              .6              .6              .6          
      LAMBDA    2.000000E-03    2.000000E-03    2.000000E-03    2.000000E-03 
          IS   10.000000E-15   10.000000E-15   10.000000E-15   10.000000E-15 
          JS    0               0               0               0            
          PB     .8              .8              .8              .8          
        PBSW     .8              .8              .8              .8          
          CJ    0               0               0               0            
        CJSW    0               0               0               0            
        CGSO    0               0               0               0            
        CGDO    0               0               0               0            
        CGBO    0               0               0               0            
         TOX    0               0               0               0            
          XJ    0               0               0               0            
       UCRIT   10.000000E+03   10.000000E+03   10.000000E+03   10.000000E+03 
      DIOMOD    1               1               1               1            
         VFB    0               0               0               0            
        LETA    0               0               0               0            
        WETA    0               0               0               0            
          U0    0               0               0               0            
        TEMP    0               0               0               0            
         VDD    5               5               5               5            
       XPART    0               0               0               0            


**** 05/10/22 10:13:06 ******* PSpice Lite (March 2016) ******* ID# 10813 ****

  


 ****     SMALL SIGNAL BIAS SOLUTION       TEMPERATURE =   27.000 DEG C


******************************************************************************



 NODE   VOLTAGE     NODE   VOLTAGE     NODE   VOLTAGE     NODE   VOLTAGE


(    1)   12.0000  (    2)    6.0011  (    3)    2.9998  (    4)    6.0338      

(    5)    2.9720  (    6)    6.0338  (    7)    6.0000  (    8)    6.0000      

(   70)    0.0000  (   80)    0.0000  




    VOLTAGE SOURCE CURRENTS
    NAME         CURRENT

    vdd         -2.000E-05
    vs           0.000E+00
    vss          0.000E+00
    vl           0.000E+00
    vll          0.000E+00

    TOTAL POWER DISSIPATION   2.40E-04  WATTS


**** 05/10/22 10:13:06 ******* PSpice Lite (March 2016) ******* ID# 10813 ****

  


 ****     OPERATING POINT INFORMATION      TEMPERATURE =   27.000 DEG C


******************************************************************************






**** MOSFETS


NAME         m3          m2          m1          ma3         ma4       
MODEL        aaa3        aaa2        aaa1        bbbma3      bbbma4    
ID           1.00E-05    1.00E-05    1.00E-05   -5.00E-06   -5.00E-06 
VGS          6.00E+00    3.00E+00    3.00E+00   -5.97E+00   -5.97E+00 
VDS          6.00E+00    3.00E+00    3.00E+00   -5.97E+00   -5.97E+00 
VBS         -6.00E+00   -3.00E+00    0.00E+00    0.00E+00    0.00E+00 
VTH          2.63E+00    2.29E+00    1.73E+00   -3.53E+00   -3.53E+00 
VDSAT        3.37E+00    7.10E-01    1.27E+00   -2.43E+00   -2.43E+00 
Lin0/Sat1   -1.00E+00   -1.00E+00   -1.00E+00   -1.00E+00   -1.00E+00 
if          -1.00E+00   -1.00E+00   -1.00E+00   -1.00E+00   -1.00E+00 
ir          -1.00E+00   -1.00E+00   -1.00E+00   -1.00E+00   -1.00E+00 
TAU         -1.00E+00   -1.00E+00   -1.00E+00   -1.00E+00   -1.00E+00 
GM           5.93E-06    2.82E-05    1.57E-05    4.11E-06    4.11E-06 
GDS          1.98E-08    1.99E-08    1.99E-08    9.88E-09    9.88E-09 
GMB          5.77E-07    3.71E-06    0.00E+00    0.00E+00    0.00E+00 
CBD          0.00E+00    0.00E+00    0.00E+00    0.00E+00    0.00E+00 
CBS          0.00E+00    0.00E+00    0.00E+00    0.00E+00    0.00E+00 
CGSOV        0.00E+00    0.00E+00    0.00E+00    0.00E+00    0.00E+00 
CGDOV        0.00E+00    0.00E+00    0.00E+00    0.00E+00    0.00E+00 
CGBOV        0.00E+00    0.00E+00    0.00E+00    0.00E+00    0.00E+00 
CGS          0.00E+00    0.00E+00    0.00E+00    0.00E+00    0.00E+00 
CGD          0.00E+00    0.00E+00    0.00E+00    0.00E+00    0.00E+00 
CGB          0.00E+00    0.00E+00    0.00E+00    0.00E+00    0.00E+00 

NAME         ma1         ma2         m4        
MODEL        aaaa1       aaaa2       aaa4      
ID           5.00E-06    5.00E-06    1.00E-05 
VGS          3.03E+00    3.03E+00    3.00E+00 
VDS          3.06E+00    3.06E+00    2.97E+00 
VBS         -2.97E+00   -2.97E+00    0.00E+00 
VTH          2.29E+00    2.29E+00    1.73E+00 
VDSAT        7.40E-01    7.40E-01    1.27E+00 
Lin0/Sat1   -1.00E+00   -1.00E+00   -1.00E+00 
if          -1.00E+00   -1.00E+00   -1.00E+00 
ir          -1.00E+00   -1.00E+00   -1.00E+00 
TAU         -1.00E+00   -1.00E+00   -1.00E+00 
GM           1.35E-05    1.35E-05    1.57E-05 
GDS          9.94E-09    9.94E-09    1.99E-08 
GMB          1.79E-06    1.79E-06    0.00E+00 
CBD          0.00E+00    0.00E+00    0.00E+00 
CBS          0.00E+00    0.00E+00    0.00E+00 
CGSOV        0.00E+00    0.00E+00    0.00E+00 
CGDOV        0.00E+00    0.00E+00    0.00E+00 
CGBOV        0.00E+00    0.00E+00    0.00E+00 
CGS          0.00E+00    0.00E+00    0.00E+00 
CGD          0.00E+00    0.00E+00    0.00E+00 
CGB          0.00E+00    0.00E+00    0.00E+00 
**** 05/10/22 10:13:06 ******* PSpice Lite (March 2016) ******* ID# 10813 ****

  


 ****     INITIAL TRANSIENT SOLUTION       TEMPERATURE =   27.000 DEG C


******************************************************************************



 NODE   VOLTAGE     NODE   VOLTAGE     NODE   VOLTAGE     NODE   VOLTAGE


(    1)   12.0000  (    2)    6.0011  (    3)    2.9998  (    4)    6.0338      

(    5)    2.9720  (    6)    6.0338  (    7)    6.0000  (    8)    6.0000      

(   70)    0.0000  (   80)    0.0000  




    VOLTAGE SOURCE CURRENTS
    NAME         CURRENT

    vdd         -2.000E-05
    vs           0.000E+00
    vss          0.000E+00
    vl           0.000E+00
    vll          0.000E+00

    TOTAL POWER DISSIPATION   2.40E-04  WATTS



          JOB CONCLUDED

**** 05/10/22 10:13:06 ******* PSpice Lite (March 2016) ******* ID# 10813 ****

  


 ****     JOB STATISTICS SUMMARY


******************************************************************************



  Total job time (using Solver 1)   =         .11
